Time Stamp,ID,Extended,Dir,Bus,LEN,D1,D2,D3,D4,D5,D6,D7,D8
53175507,00000310,false,Rx,0,8,40,05,FC,FF,00,00,FF,FF,
53175876,00000600,false,Rx,0,8,5C,5B,8A,FF,11,27,8F,41,
53176897,00000200,false,Rx,0,8,0D,00,00,80,7A,C1,E2,1E,
53177896,00000210,false,Rx,0,8,17,2D,05,80,05,C1,6C,DE,
53178929,00000220,false,Rx,0,8,B8,2C,05,80,01,C1,4B,81,
53181930,00000110,false,Rx,0,8,FF,7F,FE,7F,AE,DF,3C,16,
53185886,00000600,false,Rx,0,8,5C,5B,8A,FF,11,27,90,41,
53186893,00000200,false,Rx,0,8,14,00,00,80,AA,D1,BC,1B,
53187895,00000210,false,Rx,0,8,13,2D,05,80,05,D1,6C,96,
53188060,00000100,false,Rx,0,4,AA,71,FF,2E,00,00,00,00,
53188246,00000300,false,Rx,0,4,FF,FE,FF,FF,00,00,00,00,
53188928,00000220,false,Rx,0,8,9A,2C,05,80,01,D1,4C,CF,
53195512,00000310,false,Rx,0,8,40,05,FC,FF,00,00,FF,FF,
53195881,00000600,false,Rx,0,8,5C,5B,8A,FF,12,27,90,41,
53196892,00000200,false,Rx,0,8,12,00,00,80,AA,E1,BC,69,
53197902,00000210,false,Rx,0,8,17,2D,05,80,05,E1,6D,06,
53198925,00000220,false,Rx,0,8,AD,2C,05,80,01,E1,48,9C,
53201935,00000110,false,Rx,0,8,FF,7F,FE,7F,AE,EF,3C,02,
53205891,00000600,false,Rx,0,8,5C,5B,8A,FF,11,27,90,41,
53206898,00000200,false,Rx,0,8,11,00,00,80,AA,01,BD,D2,
53207910,00000210,false,Rx,0,8,1C,2D,05,80,05,01,6D,F5,
53208076,00000100,false,Rx,0,4,AA,81,FF,6A,00,00,00,00,
53208262,00000300,false,Rx,0,4,FF,FE,FF,FF,00,00,00,00,
53208944,00000220,false,Rx,0,8,AD,2C,05,80,01,01,49,14,
53210871,00000511,false,Rx,0,8,00,00,00,F8,00,00,00,C0,
53211935,00000420,false,Rx,0,8,01,01,01,01,01,01,01,FF,
53212996,00000510,false,Rx,0,8,00,00,00,C0,00,00,FC,FF,
53215510,00000310,false,Rx,0,8,40,05,FC,FF,00,00,FF,FF,
53215893,00000600,false,Rx,0,8,5C,5B,8A,FF,11,27,90,41,
53216902,00000200,false,Rx,0,8,12,00,00,80,A7,11,B8,BD,
53217914,00000210,false,Rx,0,8,11,2D,05,80,05,11,6D,24,
53218934,00000220,false,Rx,0,8,BB,2C,05,80,01,11,4A,2E,
53221951,00000110,false,Rx,0,8,FF,7F,FE,7F,AE,0F,3D,8A,
53225896,00000600,false,Rx,0,8,5C,5B,8A,FF,12,27,8F,41,
53226913,00000200,false,Rx,0,8,0F,00,00,80,AA,21,BF,B4,
53227915,00000210,false,Rx,0,8,19,2D,05,80,05,21,6C,78,
53228081,00000100,false,Rx,0,4,AA,91,FF,91,00,00,00,00,
53228269,00000300,false,Rx,0,4,FF,FE,FF,FF,00,00,00,00,
53228950,00000220,false,Rx,0,8,BB,2C,05,80,01,21,4A,3A,
53235514,00000310,false,Rx,0,8,40,05,FC,FF,00,00,FF,FF,
53235893,00000600,false,Rx,0,8,5C,5B,8A,FF,12,27,90,41,
53236915,00000200,false,Rx,0,8,11,00,00,80,AA,31,BD,C6,
53237914,00000210,false,Rx,0,8,0A,2D,05,80,05,31,6F,17,
53238947,00000220,false,Rx,0,8,91,2C,05,80,01,31,4C,3C,
53241948,00000110,false,Rx,0,8,FF,7F,FE,7F,AE,1F,3C,46,
53245893,00000600,false,Rx,0,8,5C,5B,8A,FF,11,27,90,41,
53246900,00000200,false,Rx,0,8,11,00,00,80,AA,41,BC,22,
53247911,00000210,false,Rx,0,8,1E,2D,05,80,05,41,6D,E7,
53248087,00000100,false,Rx,0,4,AA,A1,FF,85,00,00,00,00,
53248263,00000300,false,Rx,0,4,FF,FE,FF,FF,00,00,00,00,
53248986,00000220,false,Rx,0,8,86,2C,05,80,01,41,4E,FF,
53255519,00000310,false,Rx,0,8,40,05,FC,FF,00,00,FF,FF,
53255899,00000600,false,Rx,0,8,5C,5B,8A,FF,11,27,90,41,
53256910,00000200,false,Rx,0,8,11,00,00,80,7A,51,E0,2E,
53257909,00000210,false,Rx,0,8,11,2D,05,80,05,51,6C,D4,
53258942,00000220,false,Rx,0,8,9A,2C,05,80,01,51,4D,6F,
53261954,00000110,false,Rx,0,8,FF,7F,FF,7F,AE,2F,3D,AE,
53265900,00000600,false,Rx,0,8,5C,5B,8A,FF,11,27,90,41,
53266907,00000200,false,Rx,0,8,14,00,00,80,AA,61,BD,AF,
53267920,00000210,false,Rx,0,8,13,2D,05,80,05,61,6D,22,
53268084,00000100,false,Rx,0,4,AA,B1,FF,7E,00,00,00,00,
53268260,00000300,false,Rx,0,4,FF,FE,FF,FF,00,00,00,00,
53268952,00000220,false,Rx,0,8,86,2C,05,80,01,61,4F,27,
53275526,00000310,false,Rx,0,8,40,05,FC,FF,00,00,FF,FF,
53275905,00000600,false,Rx,0,8,5C,5B,8A,FF,11,27,90,41,
53276917,00000200,false,Rx,0,8,11,00,00,80,AA,71,BC,36,
53277917,00000210,false,Rx,0,8,18,2D,05,80,05,71,6D,95,
53278939,00000220,false,Rx,0,8,A5,2C,05,80,01,71,49,B8,
53281960,00000110,false,Rx,0,8,FF,7F,FF,7F,AE,3F,3C,62,
53285905,00000600,false,Rx,0,8,5C,5B,8A,FF,11,27,90,41,
53286912,00000200,false,Rx,0,8,12,00,00,80,AA,81,BC,41,
53287925,00000210,false,Rx,0,8,13,2D,05,80,05,81,6C,AA,
53288089,00000100,false,Rx,0,4,AA,C1,FF,AD,00,00,00,00,
53288276,00000300,false,Rx,0,4,FF,FE,FF,FF,00,00,00,00,
53288957,00000220,false,Rx,0,8,AD,2C,05,80,01,81,48,B4,
53295532,00000310,false,Rx,0,8,40,05,FC,FF,00,00,FF,FF,
53295911,00000600,false,Rx,0,8,5C,5B,8A,FF,11,27,90,41,
53296913,00000200,false,Rx,0,8,0F,00,00,80,A7,91,BA,90,
53297923,00000210,false,Rx,0,8,17,2D,05,80,05,91,6C,E2,
53298944,00000220,false,Rx,0,8,DE,2C,05,80,01,91,42,7B,
53301955,00000110,false,Rx,0,8,FF,7F,FF,7F,AE,4F,3D,86,
53305911,00000600,false,Rx,0,8,5C,5B,8A,FF,11,27,90,41,
53306928,00000200,false,Rx,0,8,0B,00,00,80,AA,A1,BF,90,
53307930,00000210,false,Rx,0,8,11,2D,05,80,05,A1,6C,90,
53308105,00000100,false,Rx,0,4,AA,D1,FF,56,00,00,00,00,
53308282,00000300,false,Rx,0,4,FF,FE,FF,FF,00,00,00,00,
53308962,00000220,false,Rx,0,8,A5,2C,05,80,01,A1,48,24,
53315539,00000310,false,Rx,0,8,40,05,FC,FF,00,00,FF,FF,
53315917,00000600,false,Rx,0,8,5C,5B,8A,FF,11,27,90,41,
53316929,00000200,false,Rx,0,8,14,00,00,80,AA,B1,BC,33,
53317939,00000210,false,Rx,0,8,0C,2D,05,80,05,B1,6E,D1,
53318971,00000220,false,Rx,0,8,B0,2C,05,80,01,B1,4B,2D,
53321971,00000110,false,Rx,0,8,FF,7F,FE,7F,AE,5F,3D,B6,
53325916,00000600,false,Rx,0,8,5C,5B,8A,FF,11,27,8F,41,
53326933,00000200,false,Rx,0,8,0D,00,00,80,AA,C1,BF,DE,
53327935,00000210,false,Rx,0,8,11,2D,05,80,05,C1,6C,B8,
53328099,00000100,false,Rx,0,4,AA,E1,FF,42,00,00,00,00,
53328288,00000300,false,Rx,0,4,FF,FE,FF,FF,00,00,00,00,
53328968,00000220,false,Rx,0,8,A5,2C,05,80,01,C1,48,0C,
53335544,00000310,false,Rx,0,8,40,05,FC,FF,00,00,FF,FF,
53335922,00000600,false,Rx,0,8,5C,5B,8A,FF,12,27,90,41,
53336933,00000200,false,Rx,0,8,13,00,00,80,7A,D1,E0,6C,
53337943,00000210,false,Rx,0,8,11,2D,05,80,05,D1,6D,74,
53338954,00000220,false,Rx,0,8,D6,2C,05,80,01,D1,42,C3,
53341976,00000110,false,Rx,0,8,FF,7F,FE,7F,AE,6F,3D,A2,
53345911,00000600,false,Rx,0,8,5C,5B,8A,FF,11,27,8F,41,
53346928,00000200,false,Rx,0,8,13,00,00,80,AA,E1,BD,B8,
53347941,00000210,false,Rx,0,8,17,2D,05,80,05,E1,6D,06,
53348105,00000100,false,Rx,0,4,AA,01,FF,FD,00,00,00,00,
53348292,00000300,false,Rx,0,4,FF,FE,FF,FF,00,00,00,00,
53348973,00000220,false,Rx,0,8,B8,2C,05,80,01,E1,4A,59,
53355548,00000310,false,Rx,0,8,40,05,FC,FF,00,00,FF,FF,
53355916,00000600,false,Rx,0,8,5C,5B,8A,FF,12,27,90,41,
53356937,00000200,false,Rx,0,8,0D,00,00,80,AA,01,BF,8E,
53357938,00000210,false,Rx,0,8,17,2D,05,80,05,01,6C,8E,
53358959,00000220,false,Rx,0,8,A5,2C,05,80,01,01,48,5C,
53361970,00000110,false,Rx,0,8,FF,7F,FE,7F,AE,7F,3C,6E,
53365915,00000600,false,Rx,0,8,5C,5B,8A,FF,12,27,90,41,
53366932,00000200,false,Rx,0,8,0F,00,00,80,AA,11,BF,A0,
53367934,00000210,false,Rx,0,8,17,2D,05,80,05,11,6D,42,
53368109,00000100,false,Rx,0,4,AA,11,FF,06,00,00,00,00,
53368286,00000300,false,Rx,0,4,FF,FE,FF,FF,00,00,00,00,
53368966,00000220,false,Rx,0,8,B8,2C,05,80,01,11,4A,1D,
53375543,00000310,false,Rx,0,8,40,05,FC,FF,00,00,FF,FF,
53375921,00000600,false,Rx,0,8,5C,5B,8A,FF,12,27,8F,41,
53376943,00000200,false,Rx,0,8,0B,00,00,80,A7,21,BA,A0,
53377943,00000210,false,Rx,0,8,19,2D,05,80,05,21,6C,78,
53378964,00000220,false,Rx,0,8,B8,2C,05,80,01,21,4A,09,
53381975,00000110,false,Rx,0,8,FF,7F,FE,7F,AE,8F,3C,2A,
53385921,00000600,false,Rx,0,8,5C,5B,8A,FF,12,27,90,41,
53386928,00000200,false,Rx,0,8,11,00,00,80,AA,31,BD,C6,
53387941,00000210,false,Rx,0,8,1A,2D,05,80,05,31,6D,87,
53388105,00000100,false,Rx,0,4,AA,21,FF,12,00,00,00,00,
53388283,00000300,false,Rx,0,4,FF,FE,FF,FF,00,00,00,00,
53388974,00000220,false,Rx,0,8,9A,2C,05,80,01,31,4D,47,
53395550,00000310,false,Rx,0,8,40,05,FC,FF,00,00,FF,FF,
53395928,00000600,false,Rx,0,8,5C,5B,8A,FF,11,27,90,41,
53396940,00000200,false,Rx,0,8,0F,00,00,80,AA,41,BF,9C,
53397949,00000210,false,Rx,0,8,17,2D,05,80,05,41,6D,7E,
53398971,00000220,false,Rx,0,8,B8,2C,05,80,01,41,4A,21,
53401971,00000110,false,Rx,0,8,FF,7F,FE,7F,AE,9F,3D,E6,
53405937,00000600,false,Rx,0,8,5C,5B,8A,FF,12,27,90,41,
53406945,00000200,false,Rx,0,8,14,00,00,80,AA,51,BD,BB,
53407958,00000210,false,Rx,0,8,1A,2D,05,80,05,51,6D,AF,
53408122,00000100,false,Rx,0,4,AA,31,FF,E9,00,00,00,00,
53408299,00000300,false,Rx,0,4,FF,FE,FF,FF,00,00,00,00,
53408979,00000220,false,Rx,0,8,BB,2C,05,80,01,51,4B,DE,
53409970,00000230,false,Rx,0,8,52,00,11,6D,66,81,72,CC,
53410490,00000410,false,Rx,0,8,C4,FF,FF,F8,FF,FF,FF,FF,
53410924,00000511,false,Rx,0,8,00,00,00,F8,00,00,00,C0,
53413045,00000510,false,Rx,0,8,00,00,00,C0,00,00,FC,FF,
53415549,00000310,false,Rx,0,8,40,05,FC,FF,00,00,FF,FF,
53415941,00000600,false,Rx,0,8,5C,5B,8A,FF,11,27,90,41,
53416951,00000200,false,Rx,0,8,13,00,00,80,7A,61,E1,D8,
53417963,00000210,false,Rx,0,8,17,2D,05,80,05,61,6C,A6,
53418982,00000220,false,Rx,0,8,8F,2C,05,80,01,61,4F,BE,
53421989,00000110,false,Rx,0,8,FF,7F,FE,7F,AE,AF,3D,F2,
53425933,00000600,false,Rx,0,8,5C,5B,8A,FF,12,27,90,41,
53426953,00000200,false,Rx,0,8,0B,00,00,80,AA,71,BE,0C,
53427964,00000210,false,Rx,0,8,18,2D,05,80,05,71,6D,95,
53428128,00000100,false,Rx,0,4,AA,41,FF,3A,00,00,00,00,
53428315,00000300,false,Rx,0,4,FF,FE,FF,FF,00,00,00,00,
53428996,00000220,false,Rx,0,8,DE,2C,05,80,01,71,43,F3,
53435564,00000310,false,Rx,0,8,40,05,FC,FF,00,00,FF,FF,
53435952,00000600,false,Rx,0,8,5C,5B,8A,FF,11,27,90,41,
53436964,00000200,false,Rx,0,8,0E,00,00,80,AA,81,BE,1D,
53437964,00000210,false,Rx,0,8,18,2D,05,80,05,81,6D,D1,
53438985,00000220,false,Rx,0,8,CB,2C,05,80,01,81,41,72,
53441997,00000110,false,Rx,0,8,FF,7F,FE,7F,AE,BF,3C,3E,
53445941,00000600,false,Rx,0,8,5C,5B,8A,FF,11,27,90,41,
53446950,00000200,false,Rx,0,8,07,00,00,80,AA,91,BF,48,
53447951,00000210,false,Rx,0,8,1E,2D,05,80,05,91,6C,7B,
53448125,00000100,false,Rx,0,4,AA,51,FF,C1,00,00,00,00,
53448302,00000300,false,Rx,0,4,FF,FE,FF,FF,00,00,00,00,
53448993,00000220,false,Rx,0,8,C3,2C,05,80,01,91,41,F6,
53455569,00000310,false,Rx,0,8,40,05,FC,FF,00,00,FF,FF,
53455936,00000600,false,Rx,0,8,5C,5B,8A,FF,12,27,90,41,
53456186,000005F1,false,Rx,0,8,55,28,28,FF,FF,FF,FF,FF,
53456961,00000200,false,Rx,0,8,14,00,00,80,A7,A1,B9,6F,
53457953,00000210,false,Rx,0,8,1E,2D,05,80,05,A1,6C,6F,
53458985,00000220,false,Rx,0,8,B0,2C,05,80,01,A1,4A,E1,
53461996,00000110,false,Rx,0,8,FF,7F,FE,7F,AE,CF,3D,DA,
53465941,00000600,false,Rx,0,8,5C,5B,8A,FF,11,27,90,41,
53466949,00000200,false,Rx,0,8,12,00,00,80,AA,B1,BC,55,
53467960,00000210,false,Rx,0,8,17,2D,05,80,05,B1,6D,3A,
53468125,00000100,false,Rx,0,4,AA,61,FF,D5,00,00,00,00,
53468312,00000300,false,Rx,0,4,FF,FE,FF,FF,00,00,00,00,
53468992,00000220,false,Rx,0,8,AD,2C,05,80,01,B1,48,A0,
53475570,00000310,false,Rx,0,8,40,05,FC,FF,00,00,FF,FF,
53475948,00000600,false,Rx,0,8,5C,5B,8A,FF,11,27,90,41,
53476961,00000200,false,Rx,0,8,0D,00,00,80,AA,C1,BF,DE,
53477970,00000210,false,Rx,0,8,0A,2D,05,80,05,C1,6F,53,
53478981,00000220,false,Rx,0,8,A7,2C,05,80,01,C1,49,EE,
53481992,00000110,false,Rx,0,8,FF,7F,FE,7F,AE,DF,3C,16,
53485947,00000600,false,Rx,0,8,5C,5B,8A,FF,11,27,90,41,
53486966,00000200,false,Rx,0,8,0F,00,00,80,AA,D1,BF,F0,
53487958,00000210,false,Rx,0,8,13,2D,05,80,05,D1,6C,96,
53488132,00000100,false,Rx,0,4,AA,71,FF,2E,00,00,00,00,
53488309,00000300,false,Rx,0,4,FF,FE,FF,FF,00,00,00,00,
53488990,00000220,false,Rx,0,8,A5,2C,05,80,01,D1,49,C0,
53495576,00000310,false,Rx,0,8,40,05,FC,FF,00,00,FF,FF,
53495954,00000600,false,Rx,0,8,5C,5B,8A,FF,11,27,90,41,
53496956,00000200,false,Rx,0,8,10,00,00,80,7A,E1,E0,4B,
53497966,00000210,false,Rx,0,8,04,2D,05,80,05,E1,6F,A5,
53498988,00000220,false,Rx,0,8,C3,2C,05,80,01,E1,40,12,
53502000,00000110,false,Rx,0,8,FF,7F,FE,7F,AE,EF,3C,02,
53505574,00000320,false,Rx,0,8,B1,0A,00,FF,00,00,11,01,
53505962,00000600,false,Rx,0,8,5C,5B,8A,FF,11,27,90,41,
53506975,00000200,false,Rx,0,8,13,00,00,80,AA,01,BC,30,
53507974,00000210,false,Rx,0,8,11,2D,05,80,05,01,6C,E8,
53508140,00000100,false,Rx,0,4,AA,81,FF,6A,00,00,00,00,
53508328,00000300,false,Rx,0,4,FF,FE,FF,FF,00,00,00,00,
53509007,00000220,false,Rx,0,8,AD,2C,05,80,01,01,49,14,
53515578,00000310,false,Rx,0,8,40,05,FC,FF,00,00,FF,FF,
53515956,00000600,false,Rx,0,8,5C,5B,8A,FF,11,27,90,41,
53516968,00000200,false,Rx,0,8,12,00,00,80,AA,11,BC,2D,
53517977,00000210,false,Rx,0,8,1E,2D,05,80,05,11,6D,DB,
53518999,00000220,false,Rx,0,8,AD,2C,05,80,01,11,48,D8,
53522010,00000110,false,Rx,0,8,FF,7F,FE,7F,AE,0F,3D,8A,
53525968,00000600,false,Rx,0,8,5C,5B,8A,FF,11,27,90,41,
53526965,00000200,false,Rx,0,8,13,00,00,80,AA,21,BD,E8,
53527986,00000210,false,Rx,0,8,20,2D,05,80,05,21,69,11,
53528151,00000100,false,Rx,0,4,AA,91,FF,91,00,00,00,00,
53528340,00000300,false,Rx,0,4,FF,FE,FF,FF,00,00,00,00,
53529008,00000220,false,Rx,0,8,8F,2C,05,80,01,21,4E,4E,
53535585,00000310,false,Rx,0,8,40,05,FC,FF,00,00,FF,FF,
53535964,00000600,false,Rx,0,8,5C,5B,8A,FF,12,27,90,41,
53536975,00000200,false,Rx,0,8,12,00,00,80,A7,31,B9,65,
53537984,00000210,false,Rx,0,8,13,2D,05,80,05,31,6D,1E,
53539017,00000220,false,Rx,0,8,C0,2C,05,80,01,31,41,BD,
53542018,00000110,false,Rx,0,8,FF,7F,FE,7F,AE,1F,3C,46,
53545954,00000600,false,Rx,0,8,5C,5B,8A,FF,11,27,90,41,
53546971,00000200,false,Rx,0,8,15,00,00,80,AA,41,BD,A6,
53547982,00000210,false,Rx,0,8,18,2D,05,80,05,41,6D,81,
53548147,00000100,false,Rx,0,4,AA,A1,FF,85,00,00,00,00,
53548335,00000300,false,Rx,0,4,FF,FE,FF,FF,00,00,00,00,
53549015,00000220,false,Rx,0,8,A2,2C,05,80,01,41,48,1B,
53555580,00000310,false,Rx,0,8,40,05,FC,FF,00,00,FF,FF,
53555959,00000600,false,Rx,0,8,5C,5B,8A,FF,11,27,90,41,
53556981,00000200,false,Rx,0,8,09,00,00,80,AA,51,BE,36,
53557980,00000210,false,Rx,0,8,11,2D,05,80,05,51,6C,D4,
53559003,00000220,false,Rx,0,8,C3,2C,05,80,01,51,41,A6,
53562013,00000110,false,Rx,0,8,FF,7F,FE,7F,AE,2F,3C,52,
53565958,00000600,false,Rx,0,8,5C,5B,8A,FF,11,27,8F,41,
53566976,00000200,false,Rx,0,8,0D,00,00,80,AA,61,BF,A6,
53567977,00000210,false,Rx,0,8,0E,2D,05,80,05,61,6E,AF,
53568141,00000100,false,Rx,0,4,AA,B1,FF,7E,00,00,00,00,
53568330,00000300,false,Rx,0,4,FF,FE,FF,FF,00,00,00,00,
53569010,00000220,false,Rx,0,8,C3,2C,05,80,01,61,41,B2,
53575595,00000310,false,Rx,0,8,40,05,FC,FF,00,00,FF,FF,
53575964,00000600,false,Rx,0,8,5C,5B,8A,FF,11,27,8F,41,
53576975,00000200,false,Rx,0,8,0E,00,00,80,7A,71,E3,99,
53577984,00000210,false,Rx,0,8,0F,2D,05,80,05,71,6E,B2,
53579007,00000220,false,Rx,0,8,9A,2C,05,80,01,71,4C,B7,
53582018,00000110,false,Rx,0,8,FF,7F,FE,7F,AE,3F,3D,9E,
53585963,00000600,false,Rx,0,8,5C,5B,8A,FF,11,27,90,41,
53586980,00000200,false,Rx,0,8,10,00,00,80,AA,81,BD,A3,
53587991,00000210,false,Rx,0,8,15,2D,05,80,05,81,6C,CC,
53588157,00000100,false,Rx,0,4,AA,C1,FF,AD,00,00,00,00,
53588334,00000300,false,Rx,0,4,FF,FE,FF,FF,00,00,00,00,
53589014,00000220,false,Rx,0,8,9C,2C,05,80,01,81,4C,95,
53595599,00000310,false,Rx,0,8,40,05,FC,FF,00,00,FF,FF,
53595968,00000600,false,Rx,0,8,5C,5B,8A,FF,12,27,90,41,
53596980,00000200,false,Rx,0,8,14,00,00,80,AA,91,BD,EB,
53597989,00000210,false,Rx,0,8,1C,2D,05,80,05,91,6D,99,
53599011,00000220,false,Rx,0,8,B8,2C,05,80,01,91,4B,BD,
53602022,00000110,false,Rx,0,8,FF,7F,FE,7F,AE,4F,3C,7A,
53605594,00000321,false,Rx,0,8,0D,0B,00,FF,00,00,1A,01,
53605983,00000600,false,Rx,0,8,5C,5B,8A,FF,11,27,90,41,
53606995,00000200,false,Rx,0,8,13,00,00,80,AA,A1,BC,48,
53607994,00000210,false,Rx,0,8,13,2D,05,80,05,A1,6D,72,
53608161,00000100,false,Rx,0,4,AA,D1,FF,56,00,00,00,00,
53608349,00000300,false,Rx,0,4,FF,FE,FF,FF,00,00,00,00,
53609029,00000220,false,Rx,0,8,B8,2C,05,80,01,A1,4B,A9,
53610958,00000511,false,Rx,0,8,00,00,00,F8,00,00,00,C0,
53613079,00000510,false,Rx,0,8,00,00,00,C0,00,00,FC,FF,
53615603,00000310,false,Rx,0,8,40,05,FC,FF,00,00,FF,FF,
53615982,00000600,false,Rx,0,8,5C,5B,8A,FF,11,27,90,41,
53616994,00000200,false,Rx,0,8,0E,00,00,80,A7,B1,BA,99,
53618003,00000210,false,Rx,0,8,11,2D,05,80,05,B1,6D,5C,
53619026,00000220,false,Rx,0,8,DE,2C,05,80,01,B1,43,A3,
53622037,00000110,false,Rx,0,8,FF,7F,FE,7F,AE,5F,3D,B6,
53625982,00000600,false,Rx,0,8,5C,5B,8A,FF,12,27,8F,41,
53626989,00000200,false,Rx,0,8,0F,00,00,80,AA,C1,BE,3C,
53628010,00000210,false,Rx,0,8,20,2D,05,80,05,C1,68,99,
53628176,00000100,false,Rx,0,4,AA,E1,FF,42,00,00,00,00,
53628353,00000300,false,Rx,0,4,FF,FE,FF,FF,00,00,00,00,
53629033,00000220,false,Rx,0,8,C3,2C,05,80,01,C1,41,CA,
53635599,00000310,false,Rx,0,8,40,05,FC,FF,00,00,FF,FF,
53635988,00000600,false,Rx,0,8,5C,5B,8A,FF,11,27,90,41,
53637010,00000200,false,Rx,0,8,0D,00,00,80,AA,D1,BE,12,
53637999,00000210,false,Rx,0,8,0F,2D,05,80,05,D1,6E,CA,
53639032,00000220,false,Rx,0,8,91,2C,05,80,01,D1,4D,B4,
53642032,00000110,false,Rx,0,8,FF,7F,FE,7F,AE,6F,3D,A2,
53645977,00000600,false,Rx,0,8,5C,5B,8A,FF,11,27,90,41,
53646994,00000200,false,Rx,0,8,0C,00,00,80,AA,E1,BF,D7,
53647995,00000210,false,Rx,0,8,19,2D,05,80,05,E1,6C,28,
53648171,00000100,false,Rx,0,4,AA,01,FF,FD,00,00,00,00,
53648348,00000300,false,Rx,0,4,FF,FE,FF,FF,00,00,00,00,
53649029,00000220,false,Rx,0,8,9A,2C,05,80,01,E1,4C,DB,
53655605,00000310,false,Rx,0,8,40,05,FC,FF,00,00,FF,FF,
53655985,00000600,false,Rx,0,8,5C,5B,8A,FF,11,27,8F,41,
53656996,00000200,false,Rx,0,8,0C,00,00,80,7A,01,E3,9F,
53658005,00000210,false,Rx,0,8,16,2D,05,80,05,01,6D,5F,
53659069,00000220,false,Rx,0,8,AD,2C,05,80,01,01,49,14,
53662039,00000110,false,Rx,0,8,FF,7F,FE,7F,AE,7F,3C,6E,
53665984,00000600,false,Rx,0,8,5C,5B,8A,FF,11,27,90,41,
53667001,00000200,false,Rx,0,8,10,00,00,80,AA,11,BD,CF,
53668003,00000210,false,Rx,0,8,17,2D,05,80,05,11,6D,42,
53668168,00000100,false,Rx,0,4,AA,11,FF,06,00,00,00,00,
53668355,00000300,false,Rx,0,4,FF,FE,FF,FF,00,00,00,00,
53669036,00000220,false,Rx,0,8,B8,2C,05,80,01,11,4A,1D,
53675610,00000310,false,Rx,0,8,40,05,FC,FF,00,00,FF,FF,
53675990,00000600,false,Rx,0,8,5C,5B,8A,FF,11,27,90,41,
53677001,00000200,false,Rx,0,8,16,00,00,80,AA,21,BD,BD,
53678011,00000210,false,Rx,0,8,0F,2D,05,80,05,21,6E,8E,
53679033,00000220,false,Rx,0,8,9A,2C,05,80,01,21,4C,8B,
53682033,00000110,false,Rx,0,8,FF,7F,FE,7F,AE,8F,3C,2A,
53685988,00000600,false,Rx,0,8,5C,5B,8A,FF,12,27,90,41,
53687006,00000200,false,Rx,0,8,0C,00,00,80,AA,31,BE,4B,
53688008,00000210,false,Rx,0,8,15,2D,05,80,05,31,6D,78,
53688172,00000100,false,Rx,0,4,AA,21,FF,12,00,00,00,00,
53688359,00000300,false,Rx,0,4,FF,FE,FF,FF,00,00,00,00,
53689040,00000220,false,Rx,0,8,B8,2C,05,80,01,31,4B,C5,
53695615,00000310,false,Rx,0,8,40,05,FC,FF,00,00,FF,FF,
53695994,00000600,false,Rx,0,8,5C,5B,8A,FF,12,27,8F,41,
53697005,00000200,false,Rx,0,8,09,00,00,80,A7,41,BB,6A,
53698016,00000210,false,Rx,0,8,1A,2D,05,80,05,41,6C,63,
53699038,00000220,false,Rx,0,8,AD,2C,05,80,01,41,48,E4,
53702039,00000110,false,Rx,0,8,FF,7F,FE,7F,AE,9F,3D,E6,
53705611,00000322,false,Rx,0,8,EC,0A,00,FF,23,00,C3,0E,
53706011,00000600,false,Rx,0,8,5C,5B,8A,FF,12,27,90,41,
53707022,00000200,false,Rx,0,8,10,00,00,80,AA,51,BC,3F,
53708023,00000210,false,Rx,0,8,15,2D,05,80,05,51,6D,50,
53708189,00000100,false,Rx,0,4,AA,31,FF,E9,00,00,00,00,
53708366,00000300,false,Rx,0,4,FF,FE,FF,FF,00,00,00,00,
53709056,00000220,false,Rx,0,8,9A,2C,05,80,01,51,4D,6F,
53715625,00000310,false,Rx,0,8,40,05,FC,FF,00,00,FF,FF,
53716004,00000600,false,Rx,0,8,5C,5B,8A,FF,11,27,90,41,
53717025,00000200,false,Rx,0,8,13,00,00,80,AA,61,BC,18,
53718026,00000210,false,Rx,0,8,0F,2D,05,80,05,61,6F,7E,
53719047,00000220,false,Rx,0,8,C3,2C,05,80,01,61,41,B2,
53722058,00000110,false,Rx,0,8,FF,7F,FE,7F,AE,AF,3D,F2,
53726004,00000600,false,Rx,0,8,5C,5B,8A,FF,11,27,90,41,
53727011,00000200,false,Rx,0,8,12,00,00,80,AA,71,BC,05,
53728024,00000210,false,Rx,0,8,15,2D,05,80,05,71,6C,88,
53728199,00000100,false,Rx,0,4,AA,41,FF,3A,00,00,00,00,
53728376,00000300,false,Rx,0,4,FF,FE,FF,FF,00,00,00,00,
53729056,00000220,false,Rx,0,8,B0,2C,05,80,01,71,4B,7D,
53735622,00000310,false,Rx,0,8,40,05,FC,FF,00,00,FF,FF,
53736010,00000600,false,Rx,0,8,5C,5B,8A,FF,12,27,90,41,
53736238,000005F0,false,Rx,0,8,C4,4F,49,1F,14,27,03,3E,
53737023,00000200,false,Rx,0,8,0C,00,00,80,7A,81,E2,3F,
53738025,00000210,false,Rx,0,8,13,2D,05,80,05,81,6C,AA,
53739047,00000220,false,Rx,0,8,AD,2C,05,80,01,81,48,B4,
53742068,00000110,false,Rx,0,8,FF,7F,FE,7F,AE,BF,3C,3E,
53746004,00000600,false,Rx,0,8,5C,5B,8A,FF,11,27,90,41,
53747011,00000200,false,Rx,0,8,13,00,00,80,AA,91,BC,5C,
53748015,00000210,false,Rx,0,8,16,2D,05,80,05,91,6D,33,
53748189,00000100,false,Rx,0,4,AA,51,FF,C1,00,00,00,00,
53748366,00000300,false,Rx,0,4,FF,FE,FF,FF,00,00,00,00,
53749047,00000220,false,Rx,0,8,91,2C,05,80,01,91,4C,44,
53755633,00000310,false,Rx,0,8,40,05,FC,FF,00,00,FF,FF,
53756011,00000600,false,Rx,0,8,5C,5B,8A,FF,11,27,90,41,
53757022,00000200,false,Rx,0,8,0D,00,00,80,AA,A1,BF,F6,
53758022,00000210,false,Rx,0,8,19,2D,05,80,05,A1,6D,D8,
53759054,00000220,false,Rx,0,8,A5,2C,05,80,01,A1,48,24,
53762055,00000110,false,Rx,0,8,FF,7F,FE,7F,AE,CF,3D,DA,
53766010,00000600,false,Rx,0,8,5C,5B,8A,FF,12,27,8F,41,
53767017,00000200,false,Rx,0,8,11,00,00,80,AA,B1,BC,66,
53768029,00000210,false,Rx,0,8,13,2D,05,80,05,B1,6C,BE,
53768194,00000100,false,Rx,0,4,AA,61,FF,D5,00,00,00,00,
53768381,00000300,false,Rx,0,4,FF,FE,FF,FF,00,00,00,00,
53769051,00000220,false,Rx,0,8,8F,2C,05,80,01,B1,4E,22,
53775637,00000310,false,Rx,0,8,40,05,FC,FF,00,00,FF,FF,
53776015,00000600,false,Rx,0,8,5C,5B,8A,FF,11,27,90,41,
53777026,00000200,false,Rx,0,8,0C,00,00,80,A7,C1,BA,9F,
53778026,00000210,false,Rx,0,8,15,2D,05,80,05,C1,6D,3C,
53779048,00000220,false,Rx,0,8,C3,2C,05,80,01,C1,41,CA,
53782059,00000110,false,Rx,0,8,FF,7F,FE,7F,AE,DF,3C,16,
53786014,00000600,false,Rx,0,8,5C,5B,8A,FF,12,27,90,41,
53787021,00000200,false,Rx,0,8,0D,00,00,80,AA,D1,BE,12,
53788033,00000210,false,Rx,0,8,15,2D,05,80,05,D1,6C,F0,
53788198,00000100,false,Rx,0,4,AA,71,FF,2E,00,00,00,00,
53788375,00000300,false,Rx,0,4,FF,FE,FF,FF,00,00,00,00,
53789055,00000220,false,Rx,0,8,AD,2C,05,80,01,D1,48,88,
53795642,00000310,false,Rx,0,8,40,05,FC,FF,00,00,FF,FF,
53796020,00000600,false,Rx,0,8,5C,5B,8A,FF,11,27,90,41,
53797031,00000200,false,Rx,0,8,0C,00,00,80,AA,E1,BF,D7,
53798031,00000210,false,Rx,0,8,11,2D,05,80,05,E1,6D,60,
53799053,00000220,false,Rx,0,8,BB,2C,05,80,01,E1,4A,6A,
53802064,00000110,false,Rx,0,8,FF,7F,FE,7F,AE,EF,3C,02,
53806018,00000600,false,Rx,0,8,5C,5B,8A,FF,11,27,90,41,
53807037,00000200,false,Rx,0,8,11,00,00,80,AA,01,BD,D2,
53808048,00000210,false,Rx,0,8,1A,2D,05,80,05,01,6D,93,
53808213,00000100,false,Rx,0,4,AA,81,FF,6A,00,00,00,00,
53808400,00000300,false,Rx,0,4,FF,FE,FF,FF,00,00,00,00,
53809070,00000220,false,Rx,0,8,7B,2C,05,80,01,01,5A,E2,
53811009,00000511,false,Rx,0,8,00,00,00,F8,00,00,00,C0,
53813128,00000510,false,Rx,0,8,00,00,00,C0,00,00,FC,FF,
53815642,00000310,false,Rx,0,8,40,05,FC,FF,00,00,FF,FF,
53816023,00000600,false,Rx,0,8,5C,5B,8A,FF,11,27,8F,41,
53817034,00000200,false,Rx,0,8,14,00,00,80,7A,11,E1,8B,
53818035,00000210,false,Rx,0,8,0F,2D,05,80,05,11,6E,9A,
53819065,00000220,false,Rx,0,8,9A,2C,05,80,01,11,4C,9F,
53822083,00000110,false,Rx,0,8,FF,7F,FE,7F,AE,0F,3D,8A,
53826029,00000600,false,Rx,0,8,5C,5B,8A,FF,12,27,90,41,
53827037,00000200,false,Rx,0,8,09,00,00,80,AA,21,BF,D2,
53828048,00000210,false,Rx,0,8,29,2D,05,80,05,21,69,88,
53828213,00000100,false,Rx,0,4,AA,91,FF,91,00,00,00,00,
53828400,00000300,false,Rx,0,4,FF,FE,FF,FF,00,00,00,00,
53829080,00000220,false,Rx,0,8,AD,2C,05,80,01,21,48,CC,
53835647,00000310,false,Rx,0,8,40,05,FC,FF,00,00,FF,FF,
53836035,00000600,false,Rx,0,8,5C,5B,8A,FF,11,27,90,41,
53837047,00000200,false,Rx,0,8,0C,00,00,80,AA,31,BE,4B,
53838046,00000210,false,Rx,0,8,1E,2D,05,80,05,31,6C,03,
53839068,00000220,false,Rx,0,8,9A,2C,05,80,01,31,4D,47,
53842078,00000110,false,Rx,0,8,FF,7F,FE,7F,AE,1F,3C,46,
53846024,00000600,false,Rx,0,8,5C,5B,8A,FF,11,27,90,41,
53847042,00000200,false,Rx,0,8,06,00,00,80,AA,41,BF,05,
53848043,00000210,false,Rx,0,8,15,2D,05,80,05,41,6C,9C,
53848207,00000100,false,Rx,0,4,AA,A1,FF,85,00,00,00,00,
53848395,00000300,false,Rx,0,4,FF,FE,FF,FF,00,00,00,00,
53849075,00000220,false,Rx,0,8,C0,2C,05,80,01,41,40,59,
53855652,00000310,false,Rx,0,8,40,05,FC,FF,00,00,FF,FF,
53856030,00000600,false,Rx,0,8,5C,5B,8A,FF,11,27,8F,41,
53857032,00000200,false,Rx,0,8,0E,00,00,80,A7,51,BB,11,
53858042,00000210,false,Rx,0,8,18,2D,05,80,05,51,6C,4D,
53859063,00000220,false,Rx,0,8,F4,2C,05,80,01,51,45,E1,
53862074,00000110,false,Rx,0,8,FF,7F,FE,7F,AE,2F,3C,52,
53866030,00000600,false,Rx,0,8,5C,5B,8A,FF,12,27,90,41,
53867038,00000200,false,Rx,0,8,0F,00,00,80,AA,61,BE,44,
53868040,00000210,false,Rx,0,8,15,2D,05,80,05,61,6D,44,
53868214,00000100,false,Rx,0,4,AA,B1,FF,7E,00,00,00,00,
53868391,00000300,false,Rx,0,4,FF,FE,FF,FF,00,00,00,00,
53869072,00000220,false,Rx,0,8,B0,2C,05,80,01,61,4A,B1,
53875658,00000310,false,Rx,0,8,40,05,FC,FF,00,00,FF,FF,
53876036,00000600,false,Rx,0,8,5C,5B,8A,FF,11,27,90,41,
53877038,00000200,false,Rx,0,8,14,00,00,80,AA,71,BC,63,
53878048,00000210,false,Rx,0,8,16,2D,05,80,05,71,6C,BB,
53879070,00000220,false,Rx,0,8,9A,2C,05,80,01,71,4C,B7,
53882081,00000110,false,Rx,0,8,FF,7F,FE,7F,AE,3F,3D,9E,
53886026,00000600,false,Rx,0,8,5C,5B,8A,FF,12,27,8F,41,
53887045,00000200,false,Rx,0,8,10,00,00,80,AA,81,BD,A3,
53888046,00000210,false,Rx,0,8,15,2D,05,80,05,81,6C,CC,
53888221,00000100,false,Rx,0,4,AA,C1,FF,AD,00,00,00,00,
53888398,00000300,false,Rx,0,4,FF,FE,FF,FF,00,00,00,00,
53889078,00000220,false,Rx,0,8,AD,2C,05,80,01,81,48,B4,
53895664,00000310,false,Rx,0,8,40,05,FC,FF,00,00,FF,FF,
53896032,00000600,false,Rx,0,8,5C,5B,8A,FF,11,27,90,41,
53897045,00000200,false,Rx,0,8,0E,00,00,80,7A,91,E2,11,
53898055,00000210,false,Rx,0,8,0F,2D,05,80,05,91,6F,3A,
53899076,00000220,false,Rx,0,8,B0,2C,05,80,01,91,4A,F5,
53902087,00000110,false,Rx,0,8,FF,7F,FE,7F,AE,4F,3C,7A,
53906044,00000600,false,Rx,0,8,5C,5B,8A,FF,11,27,90,41,
53907052,00000200,false,Rx,0,8,0D,00,00,80,AA,A1,BF,F6,
53907992,00000100,false,Rx,0,4,AA,D1,FF,56,00,00,00,00,
53908216,00000210,false,Rx,0,8,11,2D,05,80,05,A1,6C,90,
53908394,00000300,false,Rx,0,4,FF,FE,FF,FF,00,00,00,00,
53909095,00000220,false,Rx,0,8,B8,2C,05,80,01,A1,4B,A9,
53915662,00000310,false,Rx,0,8,40,05,FC,FF,00,00,FF,FF,
53916050,00000600,false,Rx,0,8,5C,5B,8A,FF,11,27,90,41,
53917062,00000200,false,Rx,0,8,0D,00,00,80,AA,B1,BE,3A,
53918061,00000210,false,Rx,0,8,17,2D,05,80,05,B1,6D,3A,
53919093,00000220,false,Rx,0,8,9A,2C,05,80,01,B1,4C,E7,
53922093,00000110,false,Rx,0,8,FF,7F,FE,7F,AE,5F,3D,B6,
53926050,00000600,false,Rx,0,8,5C,5B,8A,FF,11,27,8F,41,
53927058,00000200,false,Rx,0,8,0F,00,00,80,AA,C1,BE,3C,
53927987,00000100,false,Rx,0,4,AA,E1,FF,42,00,00,00,00,
53928222,00000210,false,Rx,0,8,17,2D,05,80,05,C1,6C,DE,
53928401,00000300,false,Rx,0,4,FF,FE,FF,FF,00,00,00,00,
53929101,00000220,false,Rx,0,8,9A,2C,05,80,01,C1,4D,03,
53935667,00000310,false,Rx,0,8,40,05,FC,FF,00,00,FF,FF,
53936045,00000600,false,Rx,0,8,5C,5B,8A,FF,11,27,8E,41,
53937067,00000200,false,Rx,0,8,0C,00,00,80,A7,D1,BB,53,
53938066,00000210,false,Rx,0,8,17,2D,05,80,05,D1,6D,12,
53939098,00000220,false,Rx,0,8,AA,2C,05,80,01,D1,49,3F,
53942099,00000110,false,Rx,0,8,FF,7F,FE,7F,AE,6F,3D,A2,
53946045,00000600,false,Rx,0,8,5C,5B,8A,FF,12,27,90,41,
53947052,00000200,false,Rx,0,8,0C,00,00,80,AA,E1,BF,D7,
53947991,00000100,false,Rx,0,4,AA,01,FF,FD,00,00,00,00,
53948226,00000210,false,Rx,0,8,11,2D,05,80,05,E1,6D,60,
53948405,00000300,false,Rx,0,4,FF,FE,FF,FF,00,00,00,00,
53949105,00000220,false,Rx,0,8,AD,2C,05,80,01,E1,48,9C,
53955673,00000310,false,Rx,0,8,40,05,FC,FF,00,00,FF,FF,
53956052,00000600,false,Rx,0,8,5C,5B,8A,FF,11,27,90,41,
53957063,00000200,false,Rx,0,8,0F,00,00,80,AA,01,BE,6C,
53958072,00000210,false,Rx,0,8,0F,2D,05,80,05,01,6F,56,
53959094,00000220,false,Rx,0,8,B0,2C,05,80,01,01,4A,99,
53962105,00000110,false,Rx,0,8,FF,7F,FE,7F,AE,7F,3C,6E,
53966051,00000600,false,Rx,0,8,5C,5B,8A,FF,11,27,90,41,
53967058,00000200,false,Rx,0,8,0E,00,00,80,AA,11,BE,71,
53967987,00000100,false,Rx,0,4,AA,11,FF,06,00,00,00,00,
53968232,00000210,false,Rx,0,8,1A,2D,05,80,05,11,6C,5F,
53968401,00000300,false,Rx,0,4,FF,FE,FF,FF,00,00,00,00,
53969102,00000220,false,Rx,0,8,A2,2C,05,80,01,11,48,27,
53975677,00000310,false,Rx,0,8,40,05,FC,FF,00,00,FF,FF,
53976046,00000600,false,Rx,0,8,5C,5B,8A,FF,12,27,90,41,
53977057,00000200,false,Rx,0,8,11,00,00,80,7A,21,E1,CA,
53978067,00000210,false,Rx,0,8,13,2D,05,80,05,21,6C,D2,
53979100,00000220,false,Rx,0,8,C0,2C,05,80,01,21,40,71,
53982100,00000110,false,Rx,0,8,FF,7F,FE,7F,AE,8F,3C,2A,
53986056,00000600,false,Rx,0,8,5C,5B,8A,FF,12,27,90,41,
53987064,00000200,false,Rx,0,8,10,00,00,80,AA,31,BC,17,
53987992,00000100,false,Rx,0,4,AA,21,FF,12,00,00,00,00,
53988228,00000210,false,Rx,0,8,1A,2D,05,80,05,31,6D,87,
53988396,00000300,false,Rx,0,4,FF,FE,FF,FF,00,00,00,00,
53989097,00000220,false,Rx,0,8,A5,2C,05,80,01,31,48,48,
53995683,00000310,false,Rx,0,8,40,05,FC,FF,00,00,FF,FF,
53996062,00000600,false,Rx,0,8,5C,5B,8A,FF,11,27,90,41,
53997073,00000200,false,Rx,0,8,12,00,00,80,AA,41,BC,11,
53998072,00000210,false,Rx,0,8,0F,2D,05,80,05,41,6E,A6,
53999105,00000220,false,Rx,0,8,C3,2C,05,80,01,41,40,6A,
54002106,00000110,false,Rx,0,8,FF,7F,FE,7F,AE,9F,3D,E6,
54006061,00000600,false,Rx,0,8,5C,5B,8A,FF,12,27,90,41,
54007069,00000200,false,Rx,0,8,11,00,00,80,AA,51,BD,EE,
54007988,00000100,false,Rx,0,4,AA,31,FF,E9,00,00,00,00,
54008224,00000210,false,Rx,0,8,1A,2D,05,80,05,51,6D,AF,
54008402,00000300,false,Rx,0,4,FF,FE,FF,FF,00,00,00,00,
54009114,00000220,false,Rx,0,8,A2,2C,05,80,01,51,49,D7,
54011052,00000511,false,Rx,0,8,00,00,00,F8,00,00,00,C0,
54013173,00000510,false,Rx,0,8,00,00,00,C0,00,00,FC,FF,
54015686,00000310,false,Rx,0,8,40,05,FC,FF,00,00,FF,FF,
54016069,00000600,false,Rx,0,8,5C,5B,8A,FF,11,27,91,41,
54017078,00000200,false,Rx,0,8,0D,00,00,80,A7,61,BB,36,
54018090,00000210,false,Rx,0,8,0F,2D,05,80,05,61,6F,7E,
54019110,00000220,false,Rx,0,8,D6,2C,05,80,01,61,43,77,
54022119,00000110,false,Rx,0,8,FF,7F,FE,7F,AE,AF,3D,F2,
54026063,00000600,false,Rx,0,8,5C,5B,8A,FF,12,27,90,41,
54027081,00000200,false,Rx,0,8,0C,00,00,80,AA,71,BF,BB,
54027989,00000100,false,Rx,0,4,AA,41,FF,3A,00,00,00,00,
54028225,00000210,false,Rx,0,8,15,2D,05,80,05,71,6C,88,
54028403,00000300,false,Rx,0,4,FF,FE,FF,FF,00,00,00,00,
54029114,00000220,false,Rx,0,8,AD,2C,05,80,01,71,48,F0,
54035689,00000310,false,Rx,0,8,40,05,FC,FF,00,00,FF,FF,
54036079,00000600,false,Rx,0,8,5C,5B,8A,FF,11,27,90,41,
54037090,00000200,false,Rx,0,8,0E,00,00,80,AA,81,BE,1D,
54038089,00000210,false,Rx,0,8,17,2D,05,80,05,81,6D,2E,
54039122,00000220,false,Rx,0,8,A5,2C,05,80,01,81,49,FC,
54042123,00000110,false,Rx,0,8,FF,7F,FE,7F,AE,BF,3C,3E,
54046067,00000600,false,Rx,0,8,5C,5B,8A,FF,12,27,90,41,
54047074,00000200,false,Rx,0,8,10,00,00,80,AA,91,BC,6F,
54047994,00000100,false,Rx,0,4,AA,51,FF,C1,00,00,00,00,
54048230,00000210,false,Rx,0,8,1C,2D,05,80,05,91,6D,99,
54048398,00000300,false,Rx,0,4,FF,FE,FF,FF,00,00,00,00,
54049109,00000220,false,Rx,0,8,A2,2C,05,80,01,91,49,87,
54055694,00000310,false,Rx,0,8,40,05,FC,FF,00,00,FF,FF,
54056073,00000600,false,Rx,0,8,5C,5B,8A,FF,11,27,90,41,
54057074,00000200,false,Rx,0,8,0D,00,00,80,7A,A1,E2,36,
54058084,00000210,false,Rx,0,8,1C,2D,05,80,05,A1,6D,8D,
54059107,00000220,false,Rx,0,8,9A,2C,05,80,01,A1,4D,2B,
54062118,00000110,false,Rx,0,8,FF,7F,FE,7F,AE,CF,3D,DA,
54066073,00000600,false,Rx,0,8,5C,5B,8A,FF,12,27,90,41,
54067081,00000200,false,Rx,0,8,11,00,00,80,AA,B1,BC,66,
54067999,00000100,false,Rx,0,4,AA,61,FF,D5,00,00,00,00,
54068226,00000210,false,Rx,0,8,1A,2D,05,80,05,B1,6C,27,
54068403,00000300,false,Rx,0,4,FF,FE,FF,FF,00,00,00,00,
54069166,00000220,false,Rx,0,8,7E,2C,05,80,01,B1,5B,03,
54075700,00000310,false,Rx,0,8,40,05,FC,FF,00,00,FF,FF,
54076079,00000600,false,Rx,0,8,5C,5B,8A,FF,11,27,90,41,
54077090,00000200,false,Rx,0,8,11,00,00,80,AA,C1,BD,82,
54078089,00000210,false,Rx,0,8,24,2D,05,80,05,C1,69,1D,
54079122,00000220,false,Rx,0,8,D6,2C,05,80,01,C1,43,0F,
54082123,00000110,false,Rx,0,8,FF,7F,FE,7F,AE,DF,3C,16,
54086077,00000600,false,Rx,0,8,5C,5B,8A,FF,12,27,90,41,
54087085,00000200,false,Rx,0,8,12,00,00,80,AA,D1,BC,7D,
54087994,00000100,false,Rx,0,4,AA,71,FF,2E,00,00,00,00,
54088230,00000210,false,Rx,0,8,0F,2D,05,80,05,D1,6E,CA,
54088398,00000300,false,Rx,0,4,FF,FE,FF,FF,00,00,00,00,
54089130,00000220,false,Rx,0,8,C0,2C,05,80,01,D1,40,35,
54095705,00000310,false,Rx,0,8,40,05,FC,FF,00,00,FF,FF,
54096074,00000600,false,Rx,0,8,5C,5B,8A,FF,11,27,90,41,
54097085,00000200,false,Rx,0,8,0A,00,00,80,A7,E1,BB,21,
54098095,00000210,false,Rx,0,8,17,2D,05,80,05,E1,6D,06,
54099117,00000220,false,Rx,0,8,9A,2C,05,80,01,E1,4C,DB,
54102128,00000110,false,Rx,0,8,FF,7F,FE,7F,AE,EF,3C,02,
54106093,00000600,false,Rx,0,8,5C,5B,8A,FF,11,27,90,41,
54107100,00000200,false,Rx,0,8,0F,00,00,80,AA,01,BE,6C,
54107988,00000100,false,Rx,0,4,AA,81,FF,6A,00,00,00,00,
54108224,00000210,false,Rx,0,8,15,2D,05,80,05,01,6D,6C,
54108402,00000300,false,Rx,0,4,FF,FE,FF,FF,00,00,00,00,
54109144,00000220,false,Rx,0,8,A5,2C,05,80,01,01,48,5C,
54115709,00000310,false,Rx,0,8,40,05,FC,FF,00,00,FF,FF,
54116098,00000600,false,Rx,0,8,5C,5B,8A,FF,11,27,90,41,
54117099,00000200,false,Rx,0,8,0F,00,00,80,AA,11,BF,A0,
54118111,00000210,false,Rx,0,8,17,2D,05,80,05,11,6D,42,
54119133,00000220,false,Rx,0,8,9C,2C,05,80,01,11,4C,F9,
54122145,00000110,false,Rx,0,8,FF,7F,FE,7F,AE,0F,3D,8A,
54126091,00000600,false,Rx,0,8,5C,5B,8A,FF,11,27,90,41,
54127098,00000200,false,Rx,0,8,0B,00,00,80,AA,21,BE,30,
54127997,00000100,false,Rx,0,4,AA,91,FF,91,00,00,00,00,
54128222,00000210,false,Rx,0,8,11,2D,05,80,05,21,6D,30,
54128400,00000300,false,Rx,0,4,FF,FE,FF,FF,00,00,00,00,
54129152,00000220,false,Rx,0,8,C3,2C,05,80,01,21,40,42,
54135707,00000310,false,Rx,0,8,40,05,FC,FF,00,00,FF,FF,
54136097,00000600,false,Rx,0,8,5C,5B,8A,FF,12,27,90,41,
54137098,00000200,false,Rx,0,8,0D,00,00,80,7A,31,E2,5A,
54138119,00000210,false,Rx,0,8,1E,2D,05,80,05,31,6C,03,
54139140,00000220,false,Rx,0,8,C0,2C,05,80,01,31,41,BD,
54142141,00000110,false,Rx,0,8,FF,7F,FE,7F,AE,1F,3C,46,
54146085,00000600,false,Rx,0,8,5C,5B,8A,FF,11,27,90,41,
54147103,00000200,false,Rx,0,8,10,00,00,80,AA,41,BD,F3,
54147991,00000100,false,Rx,0,4,AA,A1,FF,85,00,00,00,00,
54148227,00000210,false,Rx,0,8,15,2D,05,80,05,41,6C,9C,
54148405,00000300,false,Rx,0,4,FF,FE,FF,FF,00,00,00,00,
54149147,00000220,false,Rx,0,8,C3,2C,05,80,01,41,40,6A,
54155714,00000310,false,Rx,0,8,40,05,FC,FF,00,00,FF,FF,
54156092,00000600,false,Rx,0,8,5C,5B,8A,FF,11,27,90,41,
54157113,00000200,false,Rx,0,8,0F,00,00,80,AA,51,BE,50,
54158114,00000210,false,Rx,0,8,1A,2D,05,80,05,51,6D,AF,
54159135,00000220,false,Rx,0,8,A5,2C,05,80,01,51,48,60,
54162135,00000110,false,Rx,0,8,FF,7F,FE,7F,AE,2F,3C,52,
54166091,00000600,false,Rx,0,8,5C,5B,8A,FF,11,27,90,41,
54167098,00000200,false,Rx,0,8,12,00,00,80,AA,61,BD,C9,
54167987,00000100,false,Rx,0,4,AA,B1,FF,7E,00,00,00,00,
54168223,00000210,false,Rx,0,8,0F,2D,05,80,05,61,6F,7E,
54168401,00000300,false,Rx,0,4,FF,FE,FF,FF,00,00,00,00,
54169145,00000220,false,Rx,0,8,B0,2C,05,80,01,61,4A,B1,
54175721,00000310,false,Rx,0,8,40,05,FC,FF,00,00,FF,FF,
54176099,00000600,false,Rx,0,8,5C,5B,8A,FF,11,27,90,41,
54177100,00000200,false,Rx,0,8,0F,00,00,80,A7,71,BB,18,
54178110,00000210,false,Rx,0,8,0F,2D,05,80,05,71,6E,B2,
54179142,00000220,false,Rx,0,8,C3,2C,05,80,01,71,40,7E,
54182143,00000110,false,Rx,0,8,FF,7F,FE,7F,AE,3F,3D,9E,
54186098,00000600,false,Rx,0,8,5C,5B,8A,FF,12,27,90,41,
54187105,00000200,false,Rx,0,8,14,00,00,80,AA,81,BC,27,
54187994,00000100,false,Rx,0,4,AA,C1,FF,AD,00,00,00,00,
54188229,00000210,false,Rx,0,8,0D,2D,05,80,05,81,6F,14,
54188407,00000300,false,Rx,0,4,FF,FE,FF,FF,00,00,00,00,
54189159,00000220,false,Rx,0,8,AD,2C,05,80,01,81,48,B4,
54195725,00000310,false,Rx,0,8,40,05,FC,FF,00,00,FF,FF,
54196103,00000600,false,Rx,0,8,5C,5B,8A,FF,11,27,90,41,
54197114,00000200,false,Rx,0,8,11,00,00,80,AA,91,BD,BE,
54198115,00000210,false,Rx,0,8,1A,2D,05,80,05,91,6D,FF,
54199147,00000220,false,Rx,0,8,A5,2C,05,80,01,91,48,30,
54202148,00000110,false,Rx,0,8,FF,7F,FE,7F,AE,4F,3C,7A,
54206113,00000600,false,Rx,0,8,5C,5B,8A,FF,11,27,90,41,
54207110,00000200,false,Rx,0,8,12,00,00,80,AA,A1,BD,99,
54207989,00000100,false,Rx,0,4,AA,D1,FF,56,00,00,00,00,
54208224,00000210,false,Rx,0,8,0D,2D,05,80,05,A1,6E,CC,
54208402,00000300,false,Rx,0,4,FF,FE,FF,FF,00,00,00,00,
54209164,00000220,false,Rx,0,8,B8,2C,05,80,01,A1,4B,A9,
54211093,00000511,false,Rx,0,8,00,00,00,F8,00,00,00,C0,
54212156,00000420,false,Rx,0,8,01,01,01,01,01,01,01,FF,
54213206,00000510,false,Rx,0,8,00,00,00,C0,00,00,FC,FF,
54215731,00000310,false,Rx,0,8,40,05,FC,FF,00,00,FF,FF,
54216113,00000600,false,Rx,0,8,5C,5B,8A,FF,11,27,90,41,
54217123,00000200,false,Rx,0,8,0B,00,00,80,7A,B1,E3,9C,
54218125,00000210,false,Rx,0,8,15,2D,05,80,05,B1,6C,D8,
54219154,00000220,false,Rx,0,8,91,2C,05,80,01,B1,4D,9C,
54222161,00000110,false,Rx,0,8,FF,7F,FE,7F,AE,5F,3D,B6,
54226106,00000600,false,Rx,0,8,5C,5B,8A,FF,11,27,8F,41,
54227124,00000200,false,Rx,0,8,0E,00,00,80,AA,C1,BF,ED,
54227992,00000100,false,Rx,0,4,AA,E1,FF,42,00,00,00,00,
54228227,00000210,false,Rx,0,8,1C,2D,05,80,05,C1,6D,A5,
54228405,00000300,false,Rx,0,4,FF,FE,FF,FF,00,00,00,00,
54229178,00000220,false,Rx,0,8,DE,2C,05,80,01,C1,42,47,
54235734,00000310,false,Rx,0,8,40,05,FC,FF,00,00,FF,FF,
54236122,00000600,false,Rx,0,8,5C,5B,8A,FF,11,27,90,41,
54237135,00000200,false,Rx,0,8,0F,00,00,80,AA,D1,BF,F0,
54238134,00000210,false,Rx,0,8,19,2D,05,80,05,D1,6C,3C,
54239155,00000220,false,Rx,0,8,B8,2C,05,80,01,D1,4A,4D,
54242166,00000110,false,Rx,0,8,FF,7F,FE,7F,AE,6F,3D,A2,
54246110,00000600,false,Rx,0,8,5C,5B,8A,FF,12,27,90,41,
54247119,00000200,false,Rx,0,8,12,00,00,80,AA,E1,BC,69,
54247997,00000100,false,Rx,0,4,AA,01,FF,FD,00,00,00,00,
54248232,00000210,false,Rx,0,8,17,2D,05,80,05,E1,6D,06,
54248399,00000300,false,Rx,0,4,FF,FE,FF,FF,00,00,00,00,
54249162,00000220,false,Rx,0,8,8F,2C,05,80,01,E1,4E,1E,
54255740,00000310,false,Rx,0,8,40,05,FC,FF,00,00,FF,FF,
54256118,00000600,false,Rx,0,8,5C,5B,8A,FF,11,27,90,41,
54257130,00000200,false,Rx,0,8,11,00,00,80,A7,01,B9,42,
54258129,00000210,false,Rx,0,8,13,2D,05,80,05,01,6D,0A,
54259151,00000220,false,Rx,0,8,8F,2C,05,80,01,01,4F,96,
54262163,00000110,false,Rx,0,8,FF,7F,FE,7F,AE,7F,3C,6E,
54266118,00000600,false,Rx,0,8,5C,5B,8A,FF,11,27,90,41,
54267126,00000200,false,Rx,0,8,0C,00,00,80,AA,11,BF,93,
54267994,00000100,false,Rx,0,4,AA,11,FF,06,00,00,00,00,
54268229,00000210,false,Rx,0,8,1B,2D,05,80,05,11,6D,8E,
54268397,00000300,false,Rx,0,4,FF,FE,FF,FF,00,00,00,00,
54269180,00000220,false,Rx,0,8,B0,2C,05,80,01,11,4B,55,
54275736,00000310,false,Rx,0,8,40,05,FC,FF,00,00,FF,FF,
54276114,00000600,false,Rx,0,8,5C,5B,8A,FF,11,27,90,41,
54277126,00000200,false,Rx,0,8,15,00,00,80,AA,21,BD,8E,
54278135,00000210,false,Rx,0,8,17,2D,05,80,05,21,6D,56,
54279157,00000220,false,Rx,0,8,CB,2C,05,80,01,21,41,0A,
54282168,00000110,false,Rx,0,8,FF,7F,FE,7F,AE,8F,3C,2A,
54286123,00000600,false,Rx,0,8,5C,5B,8A,FF,11,27,90,41,
54287122,00000200,false,Rx,0,8,14,00,00,80,AA,31,BD,93,
54287989,00000100,false,Rx,0,4,AA,21,FF,12,00,00,00,00,
54288224,00000210,false,Rx,0,8,1C,2D,05,80,05,31,6D,E1,
54288402,00000300,false,Rx,0,4,FF,FE,FF,FF,00,00,00,00,
54289175,00000220,false,Rx,0,8,CB,2C,05,80,01,31,40,C6,
54295741,00000310,false,Rx,0,8,40,05,FC,FF,00,00,FF,FF,
54296119,00000600,false,Rx,0,8,5C,5B,8A,FF,12,27,90,41,
54297132,00000200,false,Rx,0,8,07,00,00,80,7A,41,E3,14,
54298141,00000210,false,Rx,0,8,1A,2D,05,80,05,41,6C,63,
54299163,00000220,false,Rx,0,8,A5,2C,05,80,01,41,49,AC,
54302176,00000110,false,Rx,0,8,FF,7F,FE,7F,AE,9F,3D,E6,
54306122,00000600,false,Rx,0,8,5C,5B,8A,FF,11,27,8F,41,
54307140,00000200,false,Rx,0,8,17,00,00,80,AA,51,BD,88,
54307987,00000100,false,Rx,0,4,AA,31,FF,E9,00,00,00,00,
54308222,00000210,false,Rx,0,8,0D,2D,05,80,05,51,6E,88,
54308400,00000300,false,Rx,0,4,FF,FE,FF,FF,00,00,00,00,
54309194,00000220,false,Rx,0,8,9A,2C,05,80,01,51,4D,6F,
54315749,00000310,false,Rx,0,8,40,05,FC,FF,00,00,FF,FF,
54316138,00000600,false,Rx,0,8,5C,5B,8A,FF,12,27,90,41,
54317150,00000200,false,Rx,0,8,0A,00,00,80,AA,61,BE,11,
54318149,00000210,false,Rx,0,8,19,2D,05,80,05,61,6D,88,
54319181,00000220,false,Rx,0,8,91,2C,05,80,01,61,4C,00,
54322181,00000110,false,Rx,0,8,FF,7F,FE,7F,AE,AF,3D,F2,
54326137,00000600,false,Rx,0,8,5C,5B,8A,FF,11,27,90,41,
54327145,00000200,false,Rx,0,8,09,00,00,80,AA,71,BF,EE,
54327992,00000100,false,Rx,0,4,AA,41,FF,3A,00,00,00,00,
54328227,00000210,false,Rx,0,8,19,2D,05,80,05,71,6C,44,
54328405,00000300,false,Rx,0,4,FF,FE,FF,FF,00,00,00,00,
54329198,00000220,false,Rx,0,8,AD,2C,05,80,01,71,48,F0,
54335755,00000310,false,Rx,0,8,40,05,FC,FF,00,00,FF,FF,
54336143,00000600,false,Rx,0,8,5C,5B,8A,FF,10,27,90,41,
54337155,00000200,false,Rx,0,8,0D,00,00,80,A7,81,BA,BE,
54338165,00000210,false,Rx,0,8,19,2D,05,80,05,81,6C,00,
54339176,00000220,false,Rx,0,8,86,2C,05,80,01,81,4E,AF,
54342187,00000110,false,Rx,0,8,FF,7F,FE,7F,AE,BF,3C,3E,
54346132,00000600,false,Rx,0,8,5C,5B,8A,FF,11,27,91,41,
54347140,00000200,false,Rx,0,8,0D,00,00,80,AA,91,BF,E2,
54347998,00000100,false,Rx,0,4,AA,51,FF,C1,00,00,00,00,
54348233,00000210,false,Rx,0,8,19,2D,05,80,05,91,6D,CC,
54348400,00000300,false,Rx,0,4,FF,FE,FF,FF,00,00,00,00,
54349194,00000220,false,Rx,0,8,DE,2C,05,80,01,91,42,7B,
54355760,00000310,false,Rx,0,8,40,05,FC,FF,00,00,FF,FF,
54356138,00000600,false,Rx,0,8,5C,5B,8A,FF,11,27,90,41,
54357150,00000200,false,Rx,0,8,11,00,00,80,AA,A1,BD,AA,
54358149,00000210,false,Rx,0,8,13,2D,05,80,05,A1,6D,72,
54359171,00000220,false,Rx,0,8,CB,2C,05,80,01,A1,40,AA,
54362182,00000110,false,Rx,0,8,FF,7F,FE,7F,AE,CF,3D,DA,
54366138,00000600,false,Rx,0,8,5C,5B,8A,FF,11,27,90,41,
54367145,00000200,false,Rx,0,8,12,00,00,80,AA,B1,BC,55,
54368002,00000100,false,Rx,0,4,AA,61,FF,D5,00,00,00,00,
54368237,00000210,false,Rx,0,8,19,2D,05,80,05,B1,6C,14,
54368405,00000300,false,Rx,0,4,FF,FE,FF,FF,00,00,00,00,
54369188,00000220,false,Rx,0,8,AD,2C,05,80,01,B1,48,A0,
54375765,00000310,false,Rx,0,8,40,05,FC,FF,00,00,FF,FF,
54376144,00000600,false,Rx,0,8,5C,5B,8A,FF,12,27,90,41,
54377155,00000200,false,Rx,0,8,0D,00,00,80,7A,C1,E2,1E,
54378154,00000210,false,Rx,0,8,08,2D,05,80,05,C1,6E,B1,
54379186,00000220,false,Rx,0,8,AD,2C,05,80,01,C1,49,44,
54382187,00000110,false,Rx,0,8,FF,7F,FE,7F,AE,DF,3C,16,
54386143,00000600,false,Rx,0,8,5C,5B,8A,FF,11,27,90,41,
54387151,00000200,false,Rx,0,8,10,00,00,80,AA,D1,BD,9F,
54387987,00000100,false,Rx,0,4,AA,71,FF,2E,00,00,00,00,
54388222,00000210,false,Rx,0,8,15,2D,05,80,05,D1,6C,F0,
54388400,00000300,false,Rx,0,4,FF,FE,FF,FF,00,00,00,00,
54389205,00000220,false,Rx,0,8,9A,2C,05,80,01,D1,4C,CF,
54395770,00000310,false,Rx,0,8,40,05,FC,FF,00,00,FF,FF,
54396139,00000600,false,Rx,0,8,5C,5B,8A,FF,12,27,90,41,
54397160,00000200,false,Rx,0,8,0D,00,00,80,AA,E1,BE,06,
54398159,00000210,false,Rx,0,8,18,2D,05,80,05,E1,6D,F9,
54399182,00000220,false,Rx,0,8,CB,2C,05,80,01,E1,41,5A,
54402192,00000110,false,Rx,0,8,FF,7F,FE,7F,AE,EF,3C,02,
54406149,00000600,false,Rx,0,8,5C,5B,8A,FF,11,27,90,41,
54407156,00000200,false,Rx,0,8,13,00,00,80,AA,01,BC,30,
54407992,00000100,false,Rx,0,4,AA,81,FF,6A,00,00,00,00,
54408227,00000210,false,Rx,0,8,17,2D,05,80,05,01,6C,8E,
54408406,00000300,false,Rx,0,4,FF,FE,FF,FF,00,00,00,00,
54409210,00000220,false,Rx,0,8,C0,2C,05,80,01,01,41,A9,
54410170,00000230,false,Rx,0,8,52,00,11,6D,66,91,72,88,
54410711,00000410,false,Rx,0,8,C4,FF,FF,F8,FF,FF,FF,FF,
54411144,00000511,false,Rx,0,8,00,00,00,F8,00,00,00,C0,
54413256,00000510,false,Rx,0,8,00,00,00,C0,00,00,FC,FF,
54415769,00000310,false,Rx,0,8,40,05,FC,FF,00,00,FF,FF,
54416152,00000600,false,Rx,0,8,5C,5B,8A,FF,11,27,90,41,
54417171,00000200,false,Rx,0,8,10,00,00,80,A7,11,B9,5F,
54418172,00000210,false,Rx,0,8,11,2D,05,80,05,11,6D,24,
54419193,00000220,false,Rx,0,8,AD,2C,05,80,01,11,48,D8,
54422210,00000110,false,Rx,0,8,FF,7F,FE,7F,AE,0F,3D,8A,
54426164,00000600,false,Rx,0,8,5B,5B,8A,FF,11,27,90,41,
54427161,00000200,false,Rx,0,8,10,00,00,80,AA,21,BD,DB,
54427988,00000100,false,Rx,0,4,AA,91,FF,91,00,00,00,00,
54428234,00000210,false,Rx,0,8,20,2D,05,80,05,21,69,11,
54428402,00000300,false,Rx,0,4,FF,FE,FF,FF,00,00,00,00,
54429217,00000220,false,Rx,0,8,B5,2C,05,80,01,21,4B,14,
54435772,00000310,false,Rx,0,8,40,05,FC,FF,00,00,FF,FF,
54436162,00000600,false,Rx,0,8,5C,5B,8A,FF,12,27,90,41,
54437173,00000200,false,Rx,0,8,12,00,00,80,AA,31,BD,F5,
54438172,00000210,false,Rx,0,8,15,2D,05,80,05,31,6D,78,
54439205,00000220,false,Rx,0,8,AD,2C,05,80,01,31,49,00,
54442205,00000110,false,Rx,0,8,FF,7F,FE,7F,AE,1F,3C,46,
54446150,00000600,false,Rx,0,8,5B,5B,8A,FF,11,27,90,41,
54447158,00000200,false,Rx,0,8,11,00,00,80,AA,41,BC,22,
54447995,00000100,false,Rx,0,4,AA,A1,FF,85,00,00,00,00,
54448240,00000210,false,Rx,0,8,17,2D,05,80,05,41,6D,7E,
54448409,00000300,false,Rx,0,4,FF,FE,FF,FF,00,00,00,00,
54449213,00000220,false,Rx,0,8,B8,2C,05,80,01,41,4A,21,
54455778,00000310,false,Rx,0,8,40,05,FC,FF,00,00,FF,FF,
54456157,00000600,false,Rx,0,8,5C,5B,8A,FF,12,27,8F,41,
54456397,000005F1,false,Rx,0,8,55,28,28,FF,FF,FF,FF,FF,
54457170,00000200,false,Rx,0,8,08,00,00,80,7A,51,E2,27,
54458172,00000210,false,Rx,0,8,11,2D,05,80,05,51,6C,D4,
54459195,00000220,false,Rx,0,8,DE,2C,05,80,01,51,42,2B,
54462208,00000110,false,Rx,0,8,FF,7F,FE,7F,AE,2F,3C,52,
54466153,00000600,false,Rx,0,8,5C,5B,8A,FF,11,27,8F,41,
54467160,00000200,false,Rx,0,8,14,00,00,80,AA,61,BD,AF,
54467997,00000100,false,Rx,0,4,AA,B1,FF,7E,00,00,00,00,
54468222,00000210,false,Rx,0,8,13,2D,05,80,05,61,6D,22,
54468401,00000300,false,Rx,0,4,FF,FE,FF,FF,00,00,00,00,
54469215,00000220,false,Rx,0,8,86,2C,05,80,01,61,4F,27,
54475780,00000310,false,Rx,0,8,40,05,FC,FF,00,00,FF,FF,
54476159,00000600,false,Rx,0,8,5C,5B,8A,FF,12,27,90,41,
54477170,00000200,false,Rx,0,8,13,00,00,80,AA,71,BD,D4,
54478180,00000210,false,Rx,0,8,0F,2D,05,80,05,71,6E,B2,
54479254,00000220,false,Rx,0,8,C3,2C,05,80,01,71,40,7E,
54482214,00000110,false,Rx,0,8,FF,7F,FE,7F,AE,3F,3D,9E,
54486159,00000600,false,Rx,0,8,5C,5B,8A,FF,11,27,90,41,
54487176,00000200,false,Rx,0,8,0D,00,00,80,AA,81,BE,2E,
54487992,00000100,false,Rx,0,4,AA,C1,FF,AD,00,00,00,00,
54488227,00000210,false,Rx,0,8,13,2D,05,80,05,81,6C,AA,
54488407,00000300,false,Rx,0,4,FF,FE,FF,FF,00,00,00,00,
54489221,00000220,false,Rx,0,8,AD,2C,05,80,01,81,48,B4,
54495786,00000310,false,Rx,0,8,40,05,FC,FF,00,00,FF,FF,
54496166,00000600,false,Rx,0,8,5C,5B,8A,FF,12,27,90,41,
54497177,00000200,false,Rx,0,8,11,00,00,80,A7,91,B9,2E,
54498176,00000210,false,Rx,0,8,19,2D,05,80,05,91,6D,CC,
54499200,00000220,false,Rx,0,8,D6,2C,05,80,01,91,43,33,
54502221,00000110,false,Rx,0,8,FF,7F,FE,7F,AE,4F,3C,7A,
54505782,00000320,false,Rx,0,8,B1,0A,00,FF,00,00,11,01,
54506182,00000600,false,Rx,0,8,5B,5B,8A,FF,11,27,90,41,
54507184,00000200,false,Rx,0,8,12,00,00,80,AA,A1,BD,99,
54507988,00000100,false,Rx,0,4,AA,D1,FF,56,00,00,00,00,
54508226,00000210,false,Rx,0,8,11,2D,05,80,05,A1,6C,90,
54508394,00000300,false,Rx,0,4,FF,FE,FF,FF,00,00,00,00,
54509228,00000220,false,Rx,0,8,CB,2C,05,80,01,A1,40,AA,
54515797,00000310,false,Rx,0,8,40,05,FC,FF,00,00,FF,FF,
54516176,00000600,false,Rx,0,8,5B,5B,8A,FF,11,27,90,41,
54517188,00000200,false,Rx,0,8,11,00,00,80,AA,B1,BC,66,
54518197,00000210,false,Rx,0,8,18,2D,05,80,05,B1,6D,C5,
54519220,00000220,false,Rx,0,8,A5,2C,05,80,01,B1,49,E8,
54522231,00000110,false,Rx,0,8,FF,7F,FE,7F,AE,5F,3D,B6,
54526176,00000600,false,Rx,0,8,5B,5B,8A,FF,12,27,90,41,
54527194,00000200,false,Rx,0,8,10,00,00,80,AA,C1,BC,53,
54527989,00000100,false,Rx,0,4,AA,E1,FF,42,00,00,00,00,
54528225,00000210,false,Rx,0,8,1A,2D,05,80,05,C1,6D,C3,
54528403,00000300,false,Rx,0,4,FF,FE,FF,FF,00,00,00,00,
54529238,00000220,false,Rx,0,8,A2,2C,05,80,01,C1,49,BB,
54535792,00000310,false,Rx,0,8,40,05,FC,FF,00,00,FF,FF,
54536182,00000600,false,Rx,0,8,5C,5B,8A,FF,11,27,8F,41,
54537194,00000200,false,Rx,0,8,0F,00,00,80,7A,D1,E2,30,
54538194,00000210,false,Rx,0,8,15,2D,05,80,05,D1,6C,F0,
54539215,00000220,false,Rx,0,8,A2,2C,05,80,01,D1,48,77,
54542227,00000110,false,Rx,0,8,FF,7F,FE,7F,AE,6F,3D,A2,
54546174,00000600,false,Rx,0,8,5C,5B,8A,FF,11,27,90,41,
54547191,00000200,false,Rx,0,8,0A,00,00,80,AA,E1,BF,B1,
54547997,00000100,false,Rx,0,4,AA,01,FF,FD,00,00,00,00,
54548233,00000210,false,Rx,0,8,24,2D,05,80,05,E1,68,C5,
54548401,00000300,false,Rx,0,4,FF,FE,FF,FF,00,00,00,00,
54549235,00000220,false,Rx,0,8,C3,2C,05,80,01,E1,40,12,
54555801,00000310,false,Rx,0,8,40,05,FC,FF,00,00,FF,FF,
54556180,00000600,false,Rx,0,8,5C,5B,8A,FF,12,27,90,41,
54557201,00000200,false,Rx,0,8,0B,00,00,80,AA,01,BF,E8,
54558201,00000210,false,Rx,0,8,0F,2D,05,80,05,01,6F,56,
54559223,00000220,false,Rx,0,8,D6,2C,05,80,01,01,43,5F,
54562235,00000110,false,Rx,0,8,FF,7F,FE,7F,AE,7F,3C,6E,
54566180,00000600,false,Rx,0,8,5C,5B,8A,FF,11,27,90,41,
54567187,00000200,false,Rx,0,8,15,00,00,80,AA,11,BD,9A,
54567992,00000100,false,Rx,0,4,AA,11,FF,06,00,00,00,00,
54568229,00000210,false,Rx,0,8,18,2D,05,80,05,11,6D,BD,
54568407,00000300,false,Rx,0,4,FF,FE,FF,FF,00,00,00,00,
54569231,00000220,false,Rx,0,8,AD,2C,05,80,01,11,48,D8,
54575807,00000310,false,Rx,0,8,40,05,FC,FF,00,00,FF,FF,
54576185,00000600,false,Rx,0,8,5B,5B,8A,FF,11,27,90,41,
54577186,00000200,false,Rx,0,8,0F,00,00,80,A7,21,BB,24,
54578197,00000210,false,Rx,0,8,1C,2D,05,80,05,21,6C,2D,
54579229,00000220,false,Rx,0,8,B0,2C,05,80,01,21,4B,41,
54582230,00000110,false,Rx,0,8,FF,7F,FE,7F,AE,8F,3C,2A,
54586185,00000600,false,Rx,0,8,5C,5B,8A,FF,11,27,90,41,
54587192,00000200,false,Rx,0,8,0F,00,00,80,AA,31,BE,78,
54587988,00000100,false,Rx,0,4,AA,21,FF,12,00,00,00,00,
54588235,00000210,false,Rx,0,8,1A,2D,05,80,05,31,6D,87,
54588402,00000300,false,Rx,0,4,FF,FE,FF,FF,00,00,00,00,
54589247,00000220,false,Rx,0,8,B8,2C,05,80,01,31,4B,C5,
54595813,00000310,false,Rx,0,8,40,05,FC,FF,00,00,FF,FF,
54596190,00000600,false,Rx,0,8,5C,5B,8A,FF,12,27,90,41,
54597202,00000200,false,Rx,0,8,0E,00,00,80,AA,41,BE,4D,
54598202,00000210,false,Rx,0,8,1E,2D,05,80,05,41,6D,E7,
54599234,00000220,false,Rx,0,8,B8,2C,05,80,01,41,4A,21,
54602234,00000110,false,Rx,0,8,FF,7F,FE,7F,AE,9F,3D,E6,
54605807,00000321,false,Rx,0,8,0D,0B,00,FF,00,00,1A,01,
54606205,00000600,false,Rx,0,8,5C,5B,8A,FF,12,27,90,41,
54607206,00000200,false,Rx,0,8,14,00,00,80,AA,51,BD,BB,
54607989,00000100,false,Rx,0,4,AA,31,FF,E9,00,00,00,00,
54608228,00000210,false,Rx,0,8,15,2D,05,80,05,51,6D,50,
54608406,00000300,false,Rx,0,4,FF,FE,FF,FF,00,00,00,00,
54609250,00000220,false,Rx,0,8,AD,2C,05,80,01,51,49,28,
54611181,00000511,false,Rx,0,8,00,00,00,F8,00,00,00,C0,
54613302,00000510,false,Rx,0,8,00,00,00,C0,00,00,FC,FF,
54615814,00000310,false,Rx,0,8,40,05,FC,FF,00,00,FF,FF,
54616192,00000600,false,Rx,0,8,5C,5B,8A,FF,11,27,8F,41,
54617213,00000200,false,Rx,0,8,0F,00,00,80,7A,61,E3,84,
54618214,00000210,false,Rx,0,8,08,2D,05,80,05,61,6E,C9,
54619245,00000220,false,Rx,0,8,C3,2C,05,80,01,61,41,B2,
54622246,00000110,false,Rx,0,8,FF,7F,FE,7F,AE,AF,3D,F2,
54626201,00000600,false,Rx,0,8,5C,5B,8A,FF,11,27,90,41,
54627208,00000200,false,Rx,0,8,12,00,00,80,AA,71,BC,05,
54627993,00000100,false,Rx,0,4,AA,41,FF,3A,00,00,00,00,
54628240,00000210,false,Rx,0,8,18,2D,05,80,05,71,6D,95,
54628407,00000300,false,Rx,0,4,FF,FE,FF,FF,00,00,00,00,
54629252,00000220,false,Rx,0,8,A5,2C,05,80,01,71,49,B8,
54635818,00000310,false,Rx,0,8,40,05,FC,FF,00,00,FF,FF,
54636206,00000600,false,Rx,0,8,5B,5B,8A,FF,12,27,90,41,
54637217,00000200,false,Rx,0,8,0A,00,00,80,AA,81,BF,99,
54638218,00000210,false,Rx,0,8,1C,2D,05,80,05,81,6C,55,
54639249,00000220,false,Rx,0,8,AD,2C,05,80,01,81,48,B4,
54642260,00000110,false,Rx,0,8,FF,7F,FE,7F,AE,BF,3C,3E,
54646194,00000600,false,Rx,0,8,5B,5B,8A,FF,11,27,90,41,
54647212,00000200,false,Rx,0,8,10,00,00,80,AA,91,BC,6F,
54647998,00000100,false,Rx,0,4,AA,51,FF,C1,00,00,00,00,
54648244,00000210,false,Rx,0,8,18,2D,05,80,05,91,6C,1D,
54648412,00000300,false,Rx,0,4,FF,FE,FF,FF,00,00,00,00,
54649256,00000220,false,Rx,0,8,A5,2C,05,80,01,91,48,30,
54655822,00000310,false,Rx,0,8,40,05,FC,FF,00,00,FF,FF,
54656200,00000600,false,Rx,0,8,5B,5B,8A,FF,11,27,8E,41,
54657213,00000200,false,Rx,0,8,11,00,00,80,A7,A1,B9,3A,
54658213,00000210,false,Rx,0,8,17,2D,05,80,05,A1,6C,F6,
54659235,00000220,false,Rx,0,8,86,2C,05,80,01,A1,4F,77,
54662246,00000110,false,Rx,0,8,FF,7F,FE,7F,AE,CF,3D,DA,
54666201,00000600,false,Rx,0,8,5B,5B,8A,FF,12,27,90,41,
54667209,00000200,false,Rx,0,8,18,00,00,80,AA,B1,BC,FF,
54667994,00000100,false,Rx,0,4,AA,61,FF,D5,00,00,00,00,
54668232,00000210,false,Rx,0,8,17,2D,05,80,05,B1,6D,3A,
54668409,00000300,false,Rx,0,4,FF,FE,FF,FF,00,00,00,00,
54669264,00000220,false,Rx,0,8,D6,2C,05,80,01,B1,42,EB,
54675828,00000310,false,Rx,0,8,40,05,FC,FF,00,00,FF,FF,
54676205,00000600,false,Rx,0,8,5C,5B,8A,FF,11,27,90,41,
54677218,00000200,false,Rx,0,8,12,00,00,80,AA,C1,BD,B1,
54678217,00000210,false,Rx,0,8,11,2D,05,80,05,C1,6C,B8,
54679249,00000220,false,Rx,0,8,B0,2C,05,80,01,C1,4A,C9,
54682260,00000110,false,Rx,0,8,FF,7F,FE,7F,AE,DF,3C,16,
54686206,00000600,false,Rx,0,8,5B,5B,8A,FF,11,27,90,41,
54687224,00000200,false,Rx,0,8,0F,00,00,80,AA,D1,BF,F0,
54687989,00000100,false,Rx,0,4,AA,71,FF,2E,00,00,00,00,
54688226,00000210,false,Rx,0,8,1E,2D,05,80,05,D1,6D,8B,
54688404,00000300,false,Rx,0,4,FF,FE,FF,FF,00,00,00,00,
54689259,00000220,false,Rx,0,8,7E,2C,05,80,01,D1,5B,2B,
54695834,00000310,false,Rx,0,8,40,05,FC,FF,00,00,FF,FF,
54696212,00000600,false,Rx,0,8,5B,5B,8A,FF,11,27,90,41,
54697224,00000200,false,Rx,0,8,0E,00,00,80,7A,E1,E3,F5,
54698224,00000210,false,Rx,0,8,17,2D,05,80,05,E1,6D,06,
54699255,00000220,false,Rx,0,8,C0,2C,05,80,01,E1,40,21,
54702256,00000110,false,Rx,0,8,FF,7F,FE,7F,AE,EF,3C,02,
54706211,00000600,false,Rx,0,8,5C,5B,8A,FF,12,27,90,41,
54706447,00000322,false,Rx,0,8,EC,0A,00,FF,23,00,C3,0E,
54707231,00000200,false,Rx,0,8,12,00,00,80,AA,01,BD,E1,
54707996,00000100,false,Rx,0,4,AA,81,FF,6A,00,00,00,00,
54708233,00000210,false,Rx,0,8,15,2D,05,80,05,01,6D,6C,
54708413,00000300,false,Rx,0,4,FF,FE,FF,FF,00,00,00,00,
54709279,00000220,false,Rx,0,8,E9,2C,05,80,01,01,46,50,
54715834,00000310,false,Rx,0,8,40,05,FC,FF,00,00,FF,FF,
54716222,00000600,false,Rx,0,8,5C,5B,8A,FF,12,27,90,41,
54717234,00000200,false,Rx,0,8,15,00,00,80,AA,11,BD,9A,
54718233,00000210,false,Rx,0,8,0C,2D,05,80,05,11,6E,A9,
54719266,00000220,false,Rx,0,8,C3,2C,05,80,01,11,40,56,
54722269,00000110,false,Rx,0,8,FF,7F,FE,7F,AE,0F,3D,8A,
54726223,00000600,false,Rx,0,8,5C,5B,8A,FF,12,27,8F,41,
54727232,00000200,false,Rx,0,8,14,00,00,80,AA,21,BC,5F,
54727996,00000100,false,Rx,0,4,AA,91,FF,91,00,00,00,00,
54728244,00000210,false,Rx,0,8,20,2D,05,80,05,21,69,11,
54728411,00000300,false,Rx,0,4,FF,FE,FF,FF,00,00,00,00,
54729279,00000220,false,Rx,0,8,DE,2C,05,80,01,21,43,CF,
54735843,00000310,false,Rx,0,8,40,05,FC,FF,00,00,FF,FF,
54736220,00000600,false,Rx,0,8,5B,5B,8A,FF,12,27,90,41,
54736461,000005F0,false,Rx,0,8,C4,4F,49,1F,14,27,03,3E,
54737235,00000200,false,Rx,0,8,12,00,00,80,A7,31,B9,65,
54738236,00000210,false,Rx,0,8,1A,2D,05,80,05,31,6D,87,
54739269,00000220,false,Rx,0,8,D6,2C,05,80,01,31,43,4B,
54742270,00000110,false,Rx,0,8,FF,7F,FE,7F,AE,1F,3C,46,
54746213,00000600,false,Rx,0,8,5B,5B,8A,FF,11,27,90,41,
54747232,00000200,false,Rx,0,8,1A,00,00,80,AA,41,BD,59,
54747996,00000100,false,Rx,0,4,AA,A1,FF,85,00,00,00,00,
54748234,00000210,false,Rx,0,8,15,2D,05,80,05,41,6C,9C,
54748411,00000300,false,Rx,0,4,FF,FE,FF,FF,00,00,00,00,
54749278,00000220,false,Rx,0,8,C3,2C,05,80,01,41,40,6A,
54755841,00000310,false,Rx,0,8,40,05,FC,FF,00,00,FF,FF,
54756219,00000600,false,Rx,0,8,5B,5B,8A,FF,11,27,90,41,
54757231,00000200,false,Rx,0,8,0E,00,00,80,AA,51,BF,81,
54758241,00000210,false,Rx,0,8,18,2D,05,80,05,51,6C,4D,
54759262,00000220,false,Rx,0,8,CB,2C,05,80,01,51,40,EE,
54762263,00000110,false,Rx,0,8,FF,7F,FE,7F,AE,2F,3C,52,
54766220,00000600,false,Rx,0,8,5B,5B,8A,FF,12,27,90,41,
54767228,00000200,false,Rx,0,8,11,00,00,80,AA,61,BD,FA,
54767993,00000100,false,Rx,0,4,AA,B1,FF,7E,00,00,00,00,
54768179,00000300,false,Rx,0,4,FF,FE,FF,FF,00,00,00,00,
54768407,00000210,false,Rx,0,8,0F,2D,05,80,05,61,6F,7E,
54769284,00000220,false,Rx,0,8,B8,2C,05,80,01,61,4B,F9,
54775848,00000310,false,Rx,0,8,40,05,FC,FF,00,00,FF,FF,
54776226,00000600,false,Rx,0,8,5B,5B,8A,FF,12,27,90,41,
54777238,00000200,false,Rx,0,8,0F,00,00,80,7A,71,E2,48,
54778247,00000210,false,Rx,0,8,0A,2D,05,80,05,71,6E,E7,
54779270,00000220,false,Rx,0,8,B8,2C,05,80,01,71,4A,35,
54782281,00000110,false,Rx,0,8,FF,7F,FE,7F,AE,3F,3D,9E,
54786225,00000600,false,Rx,0,8,5C,5B,8A,FF,11,27,90,41,
54787234,00000200,false,Rx,0,8,10,00,00,80,AA,81,BD,A3,
54787998,00000100,false,Rx,0,4,AA,C1,FF,AD,00,00,00,00,
54788174,00000300,false,Rx,0,4,FF,FE,FF,FF,00,00,00,00,
54788412,00000210,false,Rx,0,8,15,2D,05,80,05,81,6C,CC,
54789290,00000220,false,Rx,0,8,A5,2C,05,80,01,81,49,FC,
54795853,00000310,false,Rx,0,8,40,05,FC,FF,00,00,FF,FF,
54796232,00000600,false,Rx,0,8,5B,5B,8A,FF,11,27,90,41,
54797244,00000200,false,Rx,0,8,12,00,00,80,AA,91,BD,8D,
54798243,00000210,false,Rx,0,8,1E,2D,05,80,05,91,6C,7B,
54799277,00000220,false,Rx,0,8,B8,2C,05,80,01,91,4B,BD,
54802279,00000110,false,Rx,0,8,FF,7F,FE,7F,AE,4F,3C,7A,
54806237,00000600,false,Rx,0,8,5B,5B,8A,FF,11,27,90,41,
54807244,00000200,false,Rx,0,8,12,00,00,80,AA,A1,BD,99,
54807999,00000100,false,Rx,0,4,AA,D1,FF,56,00,00,00,00,
54808174,00000300,false,Rx,0,4,FF,FE,FF,FF,00,00,00,00,
54808412,00000210,false,Rx,0,8,0A,2D,05,80,05,A1,6F,7B,
54809291,00000220,false,Rx,0,8,C3,2C,05,80,01,A1,41,E2,
54811227,00000511,false,Rx,0,8,00,00,00,F8,00,00,00,C0,
54813348,00000510,false,Rx,0,8,00,00,00,C0,00,00,FC,FF,
54815860,00000310,false,Rx,0,8,40,05,FC,FF,00,00,FF,FF,
54816243,00000600,false,Rx,0,8,5B,5B,8A,FF,11,27,90,41,
54817252,00000200,false,Rx,0,8,0F,00,00,80,A7,B1,BB,48,
54818263,00000210,false,Rx,0,8,1B,2D,05,80,05,B1,6D,F6,
54819285,00000220,false,Rx,0,8,B8,2C,05,80,01,B1,4A,65,
54822291,00000110,false,Rx,0,8,FF,7F,FE,7F,AE,5F,3D,B6,
54826246,00000600,false,Rx,0,8,5B,5B,8A,FF,11,27,90,41,
54827253,00000200,false,Rx,0,8,10,00,00,80,AA,C1,BC,53,
54827987,00000100,false,Rx,0,4,AA,E1,FF,42,00,00,00,00,
54828173,00000300,false,Rx,0,4,FF,FE,FF,FF,00,00,00,00,
54828411,00000210,false,Rx,0,8,0A,2D,05,80,05,C1,6F,53,
54829311,00000220,false,Rx,0,8,A5,2C,05,80,01,C1,48,0C,
54835864,00000310,false,Rx,0,8,40,05,FC,FF,00,00,FF,FF,
54836253,00000600,false,Rx,0,8,5B,5B,8A,FF,11,27,90,41,
54837254,00000200,false,Rx,0,8,11,00,00,80,AA,D1,BC,4E,
54838264,00000210,false,Rx,0,8,0B,2D,05,80,05,D1,6F,4E,
54839287,00000220,false,Rx,0,8,CB,2C,05,80,01,D1,41,4E,
54842298,00000110,false,Rx,0,8,FF,7F,FE,7F,AE,6F,3D,A2,
54846231,00000600,false,Rx,0,8,5B,5B,8A,FF,12,27,90,41,
54847249,00000200,false,Rx,0,8,0D,00,00,80,AA,E1,BE,06,
54847993,00000100,false,Rx,0,4,AA,01,FF,FD,00,00,00,00,
54848179,00000300,false,Rx,0,4,FF,FE,FF,FF,00,00,00,00,
54848417,00000210,false,Rx,0,8,19,2D,05,80,05,E1,6C,28,
54849296,00000220,false,Rx,0,8,D6,2C,05,80,01,E1,42,D7,
54855869,00000310,false,Rx,0,8,40,05,FC,FF,00,00,FF,FF,
54856238,00000600,false,Rx,0,8,5B,5B,8A,FF,12,27,90,41,
54857259,00000200,false,Rx,0,8,13,00,00,80,7A,01,E1,F0,
54858259,00000210,false,Rx,0,8,1E,2D,05,80,05,01,6C,17,
54859284,00000220,false,Rx,0,8,CB,2C,05,80,01,01,40,D2,
54862296,00000110,false,Rx,0,8,FF,7F,FE,7F,AE,7F,3C,6E,
54866239,00000600,false,Rx,0,8,5B,5B,8A,FF,11,27,90,41,
54867257,00000200,false,Rx,0,8,0D,00,00,80,AA,11,BE,42,
54868001,00000100,false,Rx,0,4,AA,11,FF,06,00,00,00,00,
54868177,00000300,false,Rx,0,4,FF,FE,FF,FF,00,00,00,00,
54868416,00000210,false,Rx,0,8,15,2D,05,80,05,11,6C,A0,
54869304,00000220,false,Rx,0,8,B0,2C,05,80,01,11,4B,55,
54875866,00000310,false,Rx,0,8,40,05,FC,FF,00,00,FF,FF,
54876245,00000600,false,Rx,0,8,5B,5B,8A,FF,12,27,90,41,
54877267,00000200,false,Rx,0,8,0C,00,00,80,AA,21,BF,87,
54878266,00000210,false,Rx,0,8,15,2D,05,80,05,21,6C,B4,
54879290,00000220,false,Rx,0,8,C0,2C,05,80,01,21,40,71,
54882291,00000110,false,Rx,0,8,FF,7F,FE,7F,AE,8F,3C,2A,
54886247,00000600,false,Rx,0,8,5B,5B,8A,FF,12,27,8F,41,
54887254,00000200,false,Rx,0,8,17,00,00,80,AA,31,BD,A0,
54887988,00000100,false,Rx,0,4,AA,21,FF,12,00,00,00,00,
54888174,00000300,false,Rx,0,4,FF,FE,FF,FF,00,00,00,00,
54888403,00000210,false,Rx,0,8,1C,2D,05,80,05,31,6D,E1,
54889353,00000220,false,Rx,0,8,91,2C,05,80,01,31,4C,3C,
54895873,00000310,false,Rx,0,8,40,05,FC,FF,00,00,FF,FF,
54896253,00000600,false,Rx,0,8,5B,5B,8A,FF,11,27,90,41,
54897264,00000200,false,Rx,0,8,11,00,00,80,A7,41,B8,B2,
54898263,00000210,false,Rx,0,8,1A,2D,05,80,05,41,6C,63,
54899297,00000220,false,Rx,0,8,A2,2C,05,80,01,41,48,1B,
54902297,00000110,false,Rx,0,8,FF,7F,FE,7F,AE,9F,3D,E6,
54906262,00000600,false,Rx,0,8,5B,5B,8A,FF,12,27,90,41,
54907270,00000200,false,Rx,0,8,0C,00,00,80,AA,51,BE,63,
54907992,00000100,false,Rx,0,4,AA,31,FF,E9,00,00,00,00,
54908178,00000300,false,Rx,0,4,FF,FE,FF,FF,00,00,00,00,
54908407,00000210,false,Rx,0,8,20,2D,05,80,05,51,68,F5,
54909316,00000220,false,Rx,0,8,A5,2C,05,80,01,51,48,60,
54915878,00000310,false,Rx,0,8,40,05,FC,FF,00,00,FF,FF,
54916269,00000600,false,Rx,0,8,5B,5B,8A,FF,11,27,90,41,
54917280,00000200,false,Rx,0,8,14,00,00,80,AA,61,BD,AF,
54918279,00000210,false,Rx,0,8,17,2D,05,80,05,61,6C,A6,
54919302,00000220,false,Rx,0,8,B0,2C,05,80,01,61,4A,B1,
54922313,00000110,false,Rx,0,8,FF,7F,FE,7F,AE,AF,3D,F2,
54926267,00000600,false,Rx,0,8,5B,5B,8A,FF,11,27,90,41,
54927275,00000200,false,Rx,0,8,0D,00,00,80,AA,71,BE,6A,
54927997,00000100,false,Rx,0,4,AA,41,FF,3A,00,00,00,00,
54928183,00000300,false,Rx,0,4,FF,FE,FF,FF,00,00,00,00,
54928412,00000210,false,Rx,0,8,1C,2D,05,80,05,71,6C,11,
54929321,00000220,false,Rx,0,8,A5,2C,05,80,01,71,49,B8,
54935884,00000310,false,Rx,0,8,40,05,FC,FF,00,00,FF,FF,
54936274,00000600,false,Rx,0,8,5B,5B,8A,FF,11,27,90,41,
54937285,00000200,false,Rx,0,8,12,00,00,80,7A,81,E1,81,
54938295,00000210,false,Rx,0,8,11,2D,05,80,05,81,6D,48,
54939307,00000220,false,Rx,0,8,C3,2C,05,80,01,81,40,3A,
54942318,00000110,false,Rx,0,8,FF,7F,FE,7F,AE,BF,3C,3E,
54946261,00000600,false,Rx,0,8,5B,5B,8A,FF,11,27,90,41,
54947270,00000200,false,Rx,0,8,10,00,00,80,AA,91,BC,6F,
54947992,00000100,false,Rx,0,4,AA,51,FF,C1,00,00,00,00,
54948178,00000300,false,Rx,0,4,FF,FE,FF,FF,00,00,00,00,
54948419,00000210,false,Rx,0,8,11,2D,05,80,05,91,6C,84,
54949327,00000220,false,Rx,0,8,C0,2C,05,80,01,91,41,C5,
54955889,00000310,false,Rx,0,8,40,05,FC,FF,00,00,FF,FF,
54956269,00000600,false,Rx,0,8,5B,5B,8A,FF,11,27,90,41,
54957280,00000200,false,Rx,0,8,0E,00,00,80,AA,A1,BF,C5,
54958281,00000210,false,Rx,0,8,19,2D,05,80,05,A1,6D,D8,
54959303,00000220,false,Rx,0,8,D6,2C,05,80,01,A1,43,27,
54962315,00000110,false,Rx,0,8,FF,7F,FE,7F,AE,CF,3D,DA,
54966270,00000600,false,Rx,0,8,5B,5B,8A,FF,11,27,90,41,
54967277,00000200,false,Rx,0,8,0D,00,00,80,AA,B1,BE,3A,
54968000,00000100,false,Rx,0,4,AA,61,FF,D5,00,00,00,00,
54968186,00000300,false,Rx,0,4,FF,FE,FF,FF,00,00,00,00,
54968415,00000210,false,Rx,0,8,11,2D,05,80,05,B1,6D,5C,
54969323,00000220,false,Rx,0,8,B5,2C,05,80,01,B1,4B,78,
54975895,00000310,false,Rx,0,8,40,05,FC,FF,00,00,FF,FF,
54976264,00000600,false,Rx,0,8,5B,5B,8A,FF,12,27,90,41,
54977277,00000200,false,Rx,0,8,16,00,00,80,A7,C1,B8,A5,
54978287,00000210,false,Rx,0,8,11,2D,05,80,05,C1,6C,B8,
54979319,00000220,false,Rx,0,8,B8,2C,05,80,01,C1,4B,81,
54982320,00000110,false,Rx,0,8,FF,7F,FE,7F,AE,DF,3C,16,
54986263,00000600,false,Rx,0,8,5B,5B,8A,FF,12,27,8F,41,
54987271,00000200,false,Rx,0,8,11,00,00,80,AA,D1,BC,4E,
54987994,00000100,false,Rx,0,4,AA,71,FF,2E,00,00,00,00,
54988169,00000300,false,Rx,0,4,FF,FE,FF,FF,00,00,00,00,
54988408,00000210,false,Rx,0,8,22,2D,05,80,05,D1,68,B7,
54989327,00000220,false,Rx,0,8,7B,2C,05,80,01,D1,5B,7E,
54995900,00000310,false,Rx,0,8,40,05,FC,FF,00,00,FF,FF,
54996269,00000600,false,Rx,0,8,5B,5B,8A,FF,12,27,90,41,
54997291,00000200,false,Rx,0,8,11,00,00,80,AA,E1,BC,5A,
54998291,00000210,false,Rx,0,8,19,2D,05,80,05,E1,6C,28,
54999312,00000220,false,Rx,0,8,A5,2C,05,80,01,E1,49,D4,
55002323,00000110,false,Rx,0,8,FF,7F,FE,7F,AE,EF,3C,02,
55006289,00000600,false,Rx,0,8,5B,5B,8A,FF,11,27,90,41,
55007296,00000200,false,Rx,0,8,0B,00,00,80,AA,01,BF,E8,
55007998,00000100,false,Rx,0,4,AA,81,FF,6A,00,00,00,00,
55008173,00000300,false,Rx,0,4,FF,FE,FF,FF,00,00,00,00,
55008413,00000210,false,Rx,0,8,13,2D,05,80,05,01,6D,0A,
55009342,00000220,false,Rx,0,8,86,2C,05,80,01,01,4F,0F,
55011269,00000511,false,Rx,0,8,00,00,00,F8,00,00,00,C0,
55013389,00000510,false,Rx,0,8,00,00,00,C0,00,00,FC,FF,
55015901,00000310,false,Rx,0,8,40,05,FC,FF,00,00,FF,FF,
55016284,00000600,false,Rx,0,8,5B,5B,8A,FF,12,27,90,41,
55017294,00000200,false,Rx,0,8,14,00,00,80,7A,11,E1,8B,
55018306,00000210,false,Rx,0,8,15,2D,05,80,05,11,6C,A0,
55019326,00000220,false,Rx,0,8,B0,2C,05,80,01,11,4B,55,
55022343,00000110,false,Rx,0,8,FF,7F,FE,7F,AE,0F,3D,8A,
55026287,00000600,false,Rx,0,8,5B,5B,8A,FF,11,27,90,41,
55027294,00000200,false,Rx,0,8,0F,00,00,80,AA,21,BF,B4,
55027996,00000100,false,Rx,0,4,AA,91,FF,91,00,00,00,00,
55028173,00000300,false,Rx,0,4,FF,FE,FF,FF,00,00,00,00,
55028411,00000210,false,Rx,0,8,1A,2D,05,80,05,21,6C,4B,
55029340,00000220,false,Rx,0,8,AD,2C,05,80,01,21,48,CC,
55035906,00000310,false,Rx,0,8,40,05,FC,FF,00,00,FF,FF,
55036295,00000600,false,Rx,0,8,5B,5B,8A,FF,11,27,90,41,
55037307,00000200,false,Rx,0,8,10,00,00,80,AA,31,BC,17,
55038307,00000210,false,Rx,0,8,1A,2D,05,80,05,31,6D,87,
55039328,00000220,false,Rx,0,8,9C,2C,05,80,01,31,4D,21,
55042340,00000110,false,Rx,0,8,FF,7F,FE,7F,AE,1F,3C,46,
55046285,00000600,false,Rx,0,8,5B,5B,8A,FF,12,27,8F,41,
55047292,00000200,false,Rx,0,8,0E,00,00,80,AA,41,BE,4D,
55047994,00000100,false,Rx,0,4,AA,A1,FF,85,00,00,00,00,
55048181,00000300,false,Rx,0,4,FF,FE,FF,FF,00,00,00,00,
55048419,00000210,false,Rx,0,8,15,2D,05,80,05,41,6C,9C,
55049348,00000220,false,Rx,0,8,B8,2C,05,80,01,41,4A,21,
55055911,00000310,false,Rx,0,8,40,05,FC,FF,00,00,FF,FF,
55056280,00000600,false,Rx,0,8,5B,5B,8A,FF,11,27,91,41,
55057301,00000200,false,Rx,0,8,0F,00,00,80,A7,51,BA,C0,
55058302,00000210,false,Rx,0,8,13,2D,05,80,05,51,6D,36,
55059333,00000220,false,Rx,0,8,CB,2C,05,80,01,51,40,EE,
55062334,00000110,false,Rx,0,8,FF,7F,FE,7F,AE,2F,3C,52,
55066289,00000600,false,Rx,0,8,5B,5B,8A,FF,11,27,90,41,
55067296,00000200,false,Rx,0,8,0F,00,00,80,AA,61,BE,44,
55067987,00000100,false,Rx,0,4,AA,B1,FF,7E,00,00,00,00,
55068175,00000300,false,Rx,0,4,FF,FE,FF,FF,00,00,00,00,
55068413,00000210,false,Rx,0,8,11,2D,05,80,05,61,6C,C0,
55069352,00000220,false,Rx,0,8,B0,2C,05,80,01,61,4A,B1,
55075915,00000310,false,Rx,0,8,40,05,FC,FF,00,00,FF,FF,
55076295,00000600,false,Rx,0,8,5B,5B,8A,FF,11,27,90,41,
55077307,00000200,false,Rx,0,8,0D,00,00,80,AA,71,BE,6A,
55078306,00000210,false,Rx,0,8,1C,2D,05,80,05,71,6C,11,
55079328,00000220,false,Rx,0,8,D6,2C,05,80,01,71,42,BB,
55082338,00000110,false,Rx,0,8,FF,7F,FE,7F,AE,3F,3D,9E,
55086293,00000600,false,Rx,0,8,5B,5B,8A,FF,12,27,90,41,
55087302,00000200,false,Rx,0,8,0D,00,00,80,AA,81,BE,2E,
55087992,00000100,false,Rx,0,4,AA,C1,FF,AD,00,00,00,00,
55088179,00000300,false,Rx,0,4,FF,FE,FF,FF,00,00,00,00,
55088417,00000210,false,Rx,0,8,13,2D,05,80,05,81,6C,AA,
55089357,00000220,false,Rx,0,8,C0,2C,05,80,01,81,40,09,
55095920,00000310,false,Rx,0,8,40,05,FC,FF,00,00,FF,FF,
55096299,00000600,false,Rx,0,8,5B,5B,8A,FF,11,27,90,41,
55097311,00000200,false,Rx,0,8,0B,00,00,80,7A,91,E2,44,
55098310,00000210,false,Rx,0,8,13,2D,05,80,05,91,6D,66,
55099332,00000220,false,Rx,0,8,B8,2C,05,80,01,91,4B,BD,
55102343,00000110,false,Rx,0,8,FF,7F,FE,7F,AE,4F,3C,7A,
55106299,00000600,false,Rx,0,8,5B,5B,8A,FF,12,27,90,41,
55107318,00000200,false,Rx,0,8,0E,00,00,80,AA,A1,BF,C5,
55107998,00000100,false,Rx,0,4,AA,D1,FF,56,00,00,00,00,
55108175,00000300,false,Rx,0,4,FF,FE,FF,FF,00,00,00,00,
55108413,00000210,false,Rx,0,8,17,2D,05,80,05,A1,6C,F6,
55109362,00000220,false,Rx,0,8,A5,2C,05,80,01,A1,48,24,
55115926,00000310,false,Rx,0,8,40,05,FC,FF,00,00,FF,FF,
55116306,00000600,false,Rx,0,8,5B,5B,8A,FF,12,27,90,41,
55117318,00000200,false,Rx,0,8,0A,00,00,80,AA,B1,BF,8D,
55118317,00000210,false,Rx,0,8,17,2D,05,80,05,B1,6D,3A,
55119348,00000220,false,Rx,0,8,C0,2C,05,80,01,B1,40,1D,
55122359,00000110,false,Rx,0,8,FF,7F,FE,7F,AE,5F,3D,B6,
55126304,00000600,false,Rx,0,8,5B,5B,8A,FF,12,27,90,41,
55127312,00000200,false,Rx,0,8,0D,00,00,80,AA,C1,BF,DE,
55127994,00000100,false,Rx,0,4,AA,E1,FF,42,00,00,00,00,
55128180,00000300,false,Rx,0,4,FF,FE,FF,FF,00,00,00,00,
55128407,00000210,false,Rx,0,8,0D,2D,05,80,05,C1,6E,E4,
55129367,00000220,false,Rx,0,8,A5,2C,05,80,01,C1,48,0C,
55135931,00000310,false,Rx,0,8,40,05,FC,FF,00,00,FF,FF,
55136310,00000600,false,Rx,0,8,5B,5B,8A,FF,11,27,90,41,
55137322,00000200,false,Rx,0,8,0E,00,00,80,A7,D1,BA,B1,
55138332,00000210,false,Rx,0,8,19,2D,05,80,05,D1,6C,3C,
55139353,00000220,false,Rx,0,8,B8,2C,05,80,01,D1,4A,4D,
55142364,00000110,false,Rx,0,8,FF,7F,FE,7F,AE,6F,3D,A2,
55146309,00000600,false,Rx,0,8,5B,5B,8A,FF,11,27,90,41,
55147317,00000200,false,Rx,0,8,0D,00,00,80,AA,E1,BE,06,
55147998,00000100,false,Rx,0,4,AA,01,FF,FD,00,00,00,00,
55148184,00000300,false,Rx,0,4,FF,FE,FF,FF,00,00,00,00,
55148422,00000210,false,Rx,0,8,13,2D,05,80,05,E1,6C,82,
55149362,00000220,false,Rx,0,8,AD,2C,05,80,01,E1,48,9C,
55155926,00000310,false,Rx,0,8,40,05,FC,FF,00,00,FF,FF,
55156305,00000600,false,Rx,0,8,5B,5B,8A,FF,12,27,90,41,
55157318,00000200,false,Rx,0,8,0E,00,00,80,AA,01,BF,BD,
55158327,00000210,false,Rx,0,8,17,2D,05,80,05,01,6C,8E,
55159348,00000220,false,Rx,0,8,A5,2C,05,80,01,01,48,5C,
55162359,00000110,false,Rx,0,8,FF,7F,FE,7F,AE,7F,3C,6E,
55166304,00000600,false,Rx,0,8,5B,5B,8A,FF,12,27,90,41,
55167323,00000200,false,Rx,0,8,0E,00,00,80,AA,11,BE,71,
55167994,00000100,false,Rx,0,4,AA,11,FF,06,00,00,00,00,
55168180,00000300,false,Rx,0,4,FF,FE,FF,FF,00,00,00,00,
55168408,00000210,false,Rx,0,8,1C,2D,05,80,05,11,6C,39,
55169367,00000220,false,Rx,0,8,9A,2C,05,80,01,11,4C,9F,
55175941,00000310,false,Rx,0,8,40,05,FC,FF,00,00,FF,FF,
55176310,00000600,false,Rx,0,8,5B,5B,8A,FF,12,27,90,41,
55177322,00000200,false,Rx,0,8,10,00,00,80,7A,21,E0,1B,
55178332,00000210,false,Rx,0,8,15,2D,05,80,05,21,6C,B4,
55179353,00000220,false,Rx,0,8,AD,2C,05,80,01,21,48,CC,
55182364,00000110,false,Rx,0,8,FF,7F,FE,7F,AE,8F,3C,2A,
55186319,00000600,false,Rx,0,8,5B,5B,8A,FF,11,27,90,41,
55187317,00000200,false,Rx,0,8,0C,00,00,80,AA,31,BE,4B,
55187988,00000100,false,Rx,0,4,AA,21,FF,12,00,00,00,00,
55188174,00000300,false,Rx,0,4,FF,FE,FF,FF,00,00,00,00,
55188412,00000210,false,Rx,0,8,15,2D,05,80,05,31,6D,78,
55189372,00000220,false,Rx,0,8,C3,2C,05,80,01,31,41,8E,
55195936,00000310,false,Rx,0,8,40,05,FC,FF,00,00,FF,FF,
55196315,00000600,false,Rx,0,8,5B,5B,8A,FF,11,27,90,41,
55197327,00000200,false,Rx,0,8,0F,00,00,80,AA,41,BF,9C,
55198337,00000210,false,Rx,0,8,0D,2D,05,80,05,41,6F,44,
55199358,00000220,false,Rx,0,8,B8,2C,05,80,01,41,4A,21,
55202369,00000110,false,Rx,0,8,FF,7F,FE,7F,AE,9F,3D,E6,
55206325,00000600,false,Rx,0,8,5B,5B,8A,FF,12,27,90,41,
55207333,00000200,false,Rx,0,8,11,00,00,80,AA,51,BD,EE,
55207994,00000100,false,Rx,0,4,AA,31,FF,E9,00,00,00,00,
55208180,00000300,false,Rx,0,4,FF,FE,FF,FF,00,00,00,00,
55208408,00000210,false,Rx,0,8,1C,2D,05,80,05,51,6D,C9,
55209378,00000220,false,Rx,0,8,CB,2C,05,80,01,51,40,EE,
55211306,00000511,false,Rx,0,8,00,00,00,F8,00,00,00,C0,
55212369,00000420,false,Rx,0,8,01,01,01,01,01,01,01,FF,
55213422,00000510,false,Rx,0,8,00,00,00,C0,00,00,FC,FF,
55215943,00000310,false,Rx,0,8,40,05,FC,FF,00,00,FF,FF,
55216328,00000600,false,Rx,0,8,5B,5B,8A,FF,11,27,8F,41,
55217337,00000200,false,Rx,0,8,14,00,00,80,A7,61,B9,3F,
55218348,00000210,false,Rx,0,8,0F,2D,05,80,05,61,6F,7E,
55219368,00000220,false,Rx,0,8,BB,2C,05,80,01,61,4B,CA,
55222376,00000110,false,Rx,0,8,FF,7F,FE,7F,AE,AF,3D,F2,
55226322,00000600,false,Rx,0,8,5B,5B,8A,FF,12,27,90,41,
55227340,00000200,false,Rx,0,8,10,00,00,80,AA,71,BD,E7,
55228000,00000100,false,Rx,0,4,AA,41,FF,3A,00,00,00,00,
55228176,00000300,false,Rx,0,4,FF,FE,FF,FF,00,00,00,00,
55228414,00000210,false,Rx,0,8,15,2D,05,80,05,71,6C,88,
55229396,00000220,false,Rx,0,8,A2,2C,05,80,01,71,48,0F,
55235947,00000310,false,Rx,0,8,40,05,FC,FF,00,00,FF,FF,
55236328,00000600,false,Rx,0,8,5B,5B,8A,FF,12,27,90,41,
55237350,00000200,false,Rx,0,8,11,00,00,80,AA,81,BC,72,
55238350,00000210,false,Rx,0,8,0D,2D,05,80,05,81,6F,14,
55239373,00000220,false,Rx,0,8,91,2C,05,80,01,81,4D,88,
55242383,00000110,false,Rx,0,8,FF,7F,FE,7F,AE,BF,3C,3E,
55246318,00000600,false,Rx,0,8,5B,5B,8A,FF,11,27,90,41,
55247336,00000200,false,Rx,0,8,0F,00,00,80,AA,91,BE,00,
55247996,00000100,false,Rx,0,4,AA,51,FF,C1,00,00,00,00,
55248172,00000300,false,Rx,0,4,FF,FE,FF,FF,00,00,00,00,
55248411,00000210,false,Rx,0,8,1A,2D,05,80,05,91,6D,FF,
55249382,00000220,false,Rx,0,8,B8,2C,05,80,01,91,4B,BD,
55255955,00000310,false,Rx,0,8,40,05,FC,FF,00,00,FF,FF,
55256335,00000600,false,Rx,0,8,5B,5B,8A,FF,11,27,90,41,
55257346,00000200,false,Rx,0,8,11,00,00,80,7A,A1,E0,6A,
55258345,00000210,false,Rx,0,8,11,2D,05,80,05,A1,6C,90,
55259368,00000220,false,Rx,0,8,C0,2C,05,80,01,A1,41,D1,
55262377,00000110,false,Rx,0,8,FF,7F,FE,7F,AE,CF,3D,DA,
55266334,00000600,false,Rx,0,8,5B,5B,8A,FF,11,27,90,41,
55267341,00000200,false,Rx,0,8,10,00,00,80,AA,B1,BD,B7,
55268002,00000100,false,Rx,0,4,AA,61,FF,D5,00,00,00,00,
55268178,00000300,false,Rx,0,4,FF,FE,FF,FF,00,00,00,00,
55268416,00000210,false,Rx,0,8,17,2D,05,80,05,B1,6D,3A,
55269388,00000220,false,Rx,0,8,B8,2C,05,80,01,B1,4A,65,
55275961,00000310,false,Rx,0,8,40,05,FC,FF,00,00,FF,FF,
55276332,00000600,false,Rx,0,8,5B,5B,8A,FF,11,27,90,41,
55277343,00000200,false,Rx,0,8,11,00,00,80,AA,C1,BD,82,
55278352,00000210,false,Rx,0,8,0D,2D,05,80,05,C1,6E,E4,
55279375,00000220,false,Rx,0,8,AD,2C,05,80,01,C1,49,44,
55282386,00000110,false,Rx,0,8,FF,7F,FE,7F,AE,DF,3C,16,
55286331,00000600,false,Rx,0,8,5B,5B,8A,FF,11,27,8F,41,
55287338,00000200,false,Rx,0,8,16,00,00,80,AA,D1,BD,F9,
55287999,00000100,false,Rx,0,4,AA,71,FF,2E,00,00,00,00,
55288175,00000300,false,Rx,0,4,FF,FE,FF,FF,00,00,00,00,
55288413,00000210,false,Rx,0,8,17,2D,05,80,05,D1,6D,12,
55289394,00000220,false,Rx,0,8,9A,2C,05,80,01,D1,4C,CF,
55295956,00000310,false,Rx,0,8,40,05,FC,FF,00,00,FF,FF,
55296337,00000600,false,Rx,0,8,5B,5B,8A,FF,12,27,90,41,
55297348,00000200,false,Rx,0,8,15,00,00,80,A7,E1,B9,4E,
55298357,00000210,false,Rx,0,8,0B,2D,05,80,05,E1,6F,5A,
55299432,00000220,false,Rx,0,8,C0,2C,05,80,01,E1,40,21,
55302383,00000110,false,Rx,0,8,FF,7F,FE,7F,AE,EF,3C,02,
55306350,00000600,false,Rx,0,8,5B,5B,8A,FF,12,27,90,41,
55307357,00000200,false,Rx,0,8,14,00,00,80,AA,01,BD,87,
55307998,00000100,false,Rx,0,4,AA,81,FF,6A,00,00,00,00,
55308184,00000300,false,Rx,0,4,FF,FE,FF,FF,00,00,00,00,
55308411,00000210,false,Rx,0,8,13,2D,05,80,05,01,6D,0A,
55309403,00000220,false,Rx,0,8,B8,2C,05,80,01,01,4B,D1,
55315965,00000310,false,Rx,0,8,40,05,FC,FF,00,00,FF,FF,
55316345,00000600,false,Rx,0,8,5B,5B,8A,FF,12,27,90,41,
55317367,00000200,false,Rx,0,8,0F,00,00,80,AA,11,BF,A0,
55318366,00000210,false,Rx,0,8,1E,2D,05,80,05,11,6D,DB,
55319389,00000220,false,Rx,0,8,86,2C,05,80,01,11,4E,C3,
55322400,00000110,false,Rx,0,8,FF,7F,FE,7F,AE,0F,3D,8A,
55326346,00000600,false,Rx,0,8,5B,5B,8A,FF,12,27,8F,41,
55327363,00000200,false,Rx,0,8,0F,00,00,80,AA,21,BF,B4,
55327993,00000100,false,Rx,0,4,AA,91,FF,91,00,00,00,00,
55328179,00000300,false,Rx,0,4,FF,FE,FF,FF,00,00,00,00,
55328417,00000210,false,Rx,0,8,0F,2D,05,80,05,21,6E,8E,
55329409,00000220,false,Rx,0,8,FD,2C,05,80,01,21,44,9C,
55335971,00000310,false,Rx,0,8,40,05,FC,FF,00,00,FF,FF,
55336352,00000600,false,Rx,0,8,5B,5B,8A,FF,11,27,90,41,
55337363,00000200,false,Rx,0,8,11,00,00,80,7A,31,E0,06,
55338372,00000210,false,Rx,0,8,0F,2D,05,80,05,31,6F,42,
55339395,00000220,false,Rx,0,8,86,2C,05,80,01,31,4F,1B,
55342406,00000110,false,Rx,0,8,FF,7F,FE,7F,AE,1F,3C,46,
55346341,00000600,false,Rx,0,8,5B,5B,8A,FF,12,27,90,41,
55347359,00000200,false,Rx,0,8,12,00,00,80,AA,41,BC,11,
55347999,00000100,false,Rx,0,4,AA,A1,FF,85,00,00,00,00,
55348175,00000300,false,Rx,0,4,FF,FE,FF,FF,00,00,00,00,
55348424,00000210,false,Rx,0,8,17,2D,05,80,05,41,6D,7E,
55349405,00000220,false,Rx,0,8,A5,2C,05,80,01,41,49,AC,
55355977,00000310,false,Rx,0,8,40,05,FC,FF,00,00,FF,FF,
55356357,00000600,false,Rx,0,8,5B,5B,8A,FF,11,27,90,41,
55357358,00000200,false,Rx,0,8,0C,00,00,80,AA,51,BE,63,
55358368,00000210,false,Rx,0,8,11,2D,05,80,05,51,6C,D4,
55359391,00000220,false,Rx,0,8,A5,2C,05,80,01,51,48,60,
55362402,00000110,false,Rx,0,8,FF,7F,FE,7F,AE,2F,3C,52,
55366346,00000600,false,Rx,0,8,5B,5B,8A,FF,12,27,90,41,
55367364,00000200,false,Rx,0,8,13,00,00,80,AA,61,BC,18,
55367993,00000100,false,Rx,0,4,AA,B1,FF,7E,00,00,00,00,
55368180,00000300,false,Rx,0,4,FF,FE,FF,FF,00,00,00,00,
55368408,00000210,false,Rx,0,8,15,2D,05,80,05,61,6D,44,
55369409,00000220,false,Rx,0,8,C3,2C,05,80,01,61,41,B2,
55375982,00000310,false,Rx,0,8,40,05,FC,FF,00,00,FF,FF,
55376362,00000600,false,Rx,0,8,5B,5B,8A,FF,11,27,90,41,
55377363,00000200,false,Rx,0,8,13,00,00,80,A7,71,B9,44,
55378374,00000210,false,Rx,0,8,19,2D,05,80,05,71,6C,44,
55379395,00000220,false,Rx,0,8,AD,2C,05,80,01,71,48,F0,
55382406,00000110,false,Rx,0,8,FF,7F,FE,7F,AE,3F,3D,9E,
55386351,00000600,false,Rx,0,8,5B,5B,8A,FF,12,27,90,41,
55387368,00000200,false,Rx,0,8,0A,00,00,80,AA,81,BF,99,
55387998,00000100,false,Rx,0,4,AA,C1,FF,AD,00,00,00,00,
55388184,00000300,false,Rx,0,4,FF,FE,FF,FF,00,00,00,00,
55388423,00000210,false,Rx,0,8,11,2D,05,80,05,81,6D,48,
55389414,00000220,false,Rx,0,8,C3,2C,05,80,01,81,40,3A,
55395987,00000310,false,Rx,0,8,40,05,FC,FF,00,00,FF,FF,
55396357,00000600,false,Rx,0,8,5B,5B,8A,FF,12,27,90,41,
55397368,00000200,false,Rx,0,8,0D,00,00,80,AA,91,BF,E2,
55398379,00000210,false,Rx,0,8,23,2D,05,80,05,91,68,96,
55399402,00000220,false,Rx,0,8,B8,2C,05,80,01,91,4B,BD,
55402413,00000110,false,Rx,0,8,FF,7F,FE,7F,AE,4F,3C,7A,
55406368,00000600,false,Rx,0,8,5B,5B,8A,FF,12,27,8F,41,
55407375,00000200,false,Rx,0,8,11,00,00,80,AA,A1,BD,AA,
55407995,00000100,false,Rx,0,4,AA,D1,FF,56,00,00,00,00,
55408181,00000300,false,Rx,0,4,FF,FE,FF,FF,00,00,00,00,
55408420,00000210,false,Rx,0,8,1B,2D,05,80,05,A1,6C,3A,
55409431,00000220,false,Rx,0,8,B8,2C,05,80,01,A1,4B,A9,
55410381,00000230,false,Rx,0,8,52,00,11,6D,66,A1,73,44,
55410918,00000410,false,Rx,0,8,C4,FF,FF,F8,FF,FF,FF,FF,
55411353,00000511,false,Rx,0,8,00,00,00,F8,00,00,00,C0,
55413476,00000510,false,Rx,0,8,00,00,00,C0,00,00,FC,FF,
55415987,00000310,false,Rx,0,8,40,05,FC,FF,00,00,FF,FF,
55416361,00000600,false,Rx,0,8,5B,5B,8A,FF,12,27,8F,41,
55417381,00000200,false,Rx,0,8,0C,00,00,80,7A,B1,E2,2B,
55418393,00000210,false,Rx,0,8,08,2D,05,80,05,B1,6F,55,
55419413,00000220,false,Rx,0,8,B8,2C,05,80,01,B1,4A,65,
55422419,00000110,false,Rx,0,8,FF,7F,FE,7F,AE,5F,3D,B6,
55426366,00000600,false,Rx,0,8,5B,5B,8A,FF,12,27,8F,41,
55427384,00000200,false,Rx,0,8,0F,00,00,80,AA,C1,BE,3C,
55427993,00000100,false,Rx,0,4,AA,E1,FF,42,00,00,00,00,
55428169,00000300,false,Rx,0,4,FF,FE,FF,FF,00,00,00,00,
55428418,00000210,false,Rx,0,8,18,2D,05,80,05,C1,6C,21,
55429429,00000220,false,Rx,0,8,AD,2C,05,80,01,C1,49,44,
55435993,00000310,false,Rx,0,8,40,05,FC,FF,00,00,FF,FF,
55436372,00000600,false,Rx,0,8,5B,5B,8A,FF,12,27,90,41,
55437383,00000200,false,Rx,0,8,0E,00,00,80,AA,D1,BE,21,
55438393,00000210,false,Rx,0,8,1A,2D,05,80,05,D1,6C,0F,
55439415,00000220,false,Rx,0,8,A5,2C,05,80,01,D1,49,C0,
55442426,00000110,false,Rx,0,8,FF,7F,FE,7F,AE,6F,3D,A2,
55446371,00000600,false,Rx,0,8,5B,5B,8A,FF,11,27,8F,41,
55447378,00000200,false,Rx,0,8,13,00,00,80,AA,E1,BD,B8,
55447998,00000100,false,Rx,0,4,AA,01,FF,FD,00,00,00,00,
55448183,00000300,false,Rx,0,4,FF,FE,FF,FF,00,00,00,00,
55448424,00000210,false,Rx,0,8,1A,2D,05,80,05,E1,6C,1B,
55449425,00000220,false,Rx,0,8,B0,2C,05,80,01,E1,4B,11,
55455998,00000310,false,Rx,0,8,40,05,FC,FF,00,00,FF,FF,
55456378,00000600,false,Rx,0,8,5B,5B,8A,FF,11,27,90,41,
55456616,000005F1,false,Rx,0,8,55,28,28,FF,FF,FF,FF,FF,
55457381,00000200,false,Rx,0,8,0D,00,00,80,A7,01,BB,1E,
55458394,00000210,false,Rx,0,8,15,2D,05,80,05,01,6D,6C,
55459415,00000220,false,Rx,0,8,C3,2C,05,80,01,01,41,9A,
55462426,00000110,false,Rx,0,8,FF,7F,FE,7F,AE,7F,3C,6E,
55466371,00000600,false,Rx,0,8,5B,5B,8A,FF,11,27,90,41,
55467379,00000200,false,Rx,0,8,17,00,00,80,AA,11,BC,78,
55467998,00000100,false,Rx,0,4,AA,11,FF,06,00,00,00,00,
55468184,00000300,false,Rx,0,4,FF,FE,FF,FF,00,00,00,00,
55468424,00000210,false,Rx,0,8,11,2D,05,80,05,11,6D,24,
55469435,00000220,false,Rx,0,8,9A,2C,05,80,01,11,4C,9F,
55475998,00000310,false,Rx,0,8,40,05,FC,FF,00,00,FF,FF,
55476378,00000600,false,Rx,0,8,5B,5B,8A,FF,11,27,90,41,
55477389,00000200,false,Rx,0,8,11,00,00,80,AA,21,BC,0A,
55478389,00000210,false,Rx,0,8,1C,2D,05,80,05,21,6C,2D,
55479421,00000220,false,Rx,0,8,B0,2C,05,80,01,21,4B,41,
55482421,00000110,false,Rx,0,8,FF,7F,FE,7F,AE,8F,3C,2A,
55486377,00000600,false,Rx,0,8,5B,5B,8A,FF,11,27,90,41,
55487384,00000200,false,Rx,0,8,10,00,00,80,AA,31,BC,17,
55487993,00000100,false,Rx,0,4,AA,21,FF,12,00,00,00,00,
55488169,00000300,false,Rx,0,4,FF,FE,FF,FF,00,00,00,00,
55488418,00000210,false,Rx,0,8,17,2D,05,80,05,31,6C,9A,
55489430,00000220,false,Rx,0,8,7E,2C,05,80,01,31,5A,A3,
55496004,00000310,false,Rx,0,8,40,05,FC,FF,00,00,FF,FF,
55496383,00000600,false,Rx,0,8,5B,5B,8A,FF,12,27,90,41,
55497394,00000200,false,Rx,0,8,0A,00,00,80,7A,41,E2,09,
55498405,00000210,false,Rx,0,8,15,2D,05,80,05,41,6C,9C,
55499426,00000220,false,Rx,0,8,B0,2C,05,80,01,41,4B,69,
55502427,00000110,false,Rx,0,8,FF,7F,FE,7F,AE,9F,3D,E6,
55505998,00000320,false,Rx,0,8,B1,0A,00,FF,00,00,11,01,
55506387,00000600,false,Rx,0,8,5B,5B,8A,FF,12,27,90,41,
55507399,00000200,false,Rx,0,8,11,00,00,80,AA,51,BD,EE,
55507997,00000100,false,Rx,0,4,AA,31,FF,E9,00,00,00,00,
55508174,00000300,false,Rx,0,4,FF,FE,FF,FF,00,00,00,00,
55508412,00000210,false,Rx,0,8,15,2D,05,80,05,51,6D,50,
55509444,00000220,false,Rx,0,8,9C,2C,05,80,01,51,4D,09,
55516011,00000310,false,Rx,0,8,40,05,FC,FF,00,00,FF,FF,
55516391,00000600,false,Rx,0,8,5B,5B,8A,FF,11,27,90,41,
55517403,00000200,false,Rx,0,8,0D,00,00,80,AA,61,BF,A6,
55518413,00000210,false,Rx,0,8,20,2D,05,80,05,61,68,E1,
55519434,00000220,false,Rx,0,8,9A,2C,05,80,01,61,4D,7B,
55522445,00000110,false,Rx,0,8,FF,7F,FE,7F,AE,AF,3D,F2,
55526389,00000600,false,Rx,0,8,5B,5B,8A,FF,12,27,90,41,
55527398,00000200,false,Rx,0,8,0F,00,00,80,AA,71,BF,88,
55527995,00000100,false,Rx,0,4,AA,41,FF,3A,00,00,00,00,
55528183,00000300,false,Rx,0,4,FF,FE,FF,FF,00,00,00,00,
55528411,00000210,false,Rx,0,8,19,2D,05,80,05,71,6C,44,
55529455,00000220,false,Rx,0,8,9A,2C,05,80,01,71,4C,B7,
55536008,00000310,false,Rx,0,8,40,05,FC,FF,00,00,FF,FF,
55536398,00000600,false,Rx,0,8,5B,5B,8A,FF,11,27,90,41,
55537410,00000200,false,Rx,0,8,10,00,00,80,A7,81,B9,33,
55538419,00000210,false,Rx,0,8,1A,2D,05,80,05,81,6C,33,
55539441,00000220,false,Rx,0,8,A2,2C,05,80,01,81,48,4B,
55542452,00000110,false,Rx,0,8,FF,7F,FE,7F,AE,BF,3C,3E,
55546387,00000600,false,Rx,0,8,5B,5B,8A,FF,12,27,90,41,
55547395,00000200,false,Rx,0,8,13,00,00,80,AA,91,BC,5C,
55548004,00000100,false,Rx,0,4,AA,51,FF,C1,00,00,00,00,
55548180,00000300,false,Rx,0,4,FF,FE,FF,FF,00,00,00,00,
55548409,00000210,false,Rx,0,8,22,2D,05,80,05,91,69,47,
55549442,00000220,false,Rx,0,8,AD,2C,05,80,01,91,49,78,
55556013,00000310,false,Rx,0,8,40,05,FC,FF,00,00,FF,FF,
55556393,00000600,false,Rx,0,8,5B,5B,8A,FF,11,27,90,41,
55557405,00000200,false,Rx,0,8,09,00,00,80,AA,A1,BE,72,
55558404,00000210,false,Rx,0,8,13,2D,05,80,05,A1,6D,72,
55559436,00000220,false,Rx,0,8,D6,2C,05,80,01,A1,43,27,
55562437,00000110,false,Rx,0,8,FF,7F,FE,7F,AE,CF,3D,DA,
55566392,00000600,false,Rx,0,8,5B,5B,8A,FF,12,27,90,41,
55567400,00000200,false,Rx,0,8,11,00,00,80,AA,B1,BC,66,
55567998,00000100,false,Rx,0,4,AA,61,FF,D5,00,00,00,00,
55568175,00000300,false,Rx,0,4,FF,FE,FF,FF,00,00,00,00,
55568414,00000210,false,Rx,0,8,17,2D,05,80,05,B1,6D,3A,
55569457,00000220,false,Rx,0,8,C0,2C,05,80,01,B1,40,1D,
55576018,00000310,false,Rx,0,8,40,05,FC,FF,00,00,FF,FF,
55576398,00000600,false,Rx,0,8,5B,5B,8A,FF,12,27,90,41,
55577410,00000200,false,Rx,0,8,06,00,00,80,7A,C1,E3,65,
55578420,00000210,false,Rx,0,8,19,2D,05,80,05,C1,6D,F0,
55579441,00000220,false,Rx,0,8,9A,2C,05,80,01,C1,4D,03,
55582452,00000110,false,Rx,0,8,FF,7F,FE,7F,AE,DF,3C,16,
55586397,00000600,false,Rx,0,8,5B,5B,8A,FF,12,27,90,41,
55587416,00000200,false,Rx,0,8,0F,00,00,80,AA,D1,BF,F0,
55587993,00000100,false,Rx,0,4,AA,71,FF,2E,00,00,00,00,
55588180,00000300,false,Rx,0,4,FF,FE,FF,FF,00,00,00,00,
55588419,00000210,false,Rx,0,8,11,2D,05,80,05,D1,6D,74,
55589452,00000220,false,Rx,0,8,9C,2C,05,80,01,D1,4C,A9,
55596024,00000310,false,Rx,0,8,40,05,FC,FF,00,00,FF,FF,
55596403,00000600,false,Rx,0,8,5B,5B,8A,FF,11,27,90,41,
55597415,00000200,false,Rx,0,8,09,00,00,80,AA,E1,BF,82,
55598414,00000210,false,Rx,0,8,17,2D,05,80,05,E1,6D,06,
55599446,00000220,false,Rx,0,8,B8,2C,05,80,01,E1,4A,59,
55602457,00000110,false,Rx,0,8,FF,7F,FE,7F,AE,EF,3C,02,
55606018,00000321,false,Rx,0,8,0D,0B,00,FF,00,00,1A,01,
55606418,00000600,false,Rx,0,8,5B,5B,8A,FF,11,27,90,41,
55607420,00000200,false,Rx,0,8,0F,00,00,80,AA,01,BE,6C,
55607998,00000100,false,Rx,0,4,AA,81,FF,6A,00,00,00,00,
55608184,00000300,false,Rx,0,4,FF,FE,FF,FF,00,00,00,00,
55608433,00000210,false,Rx,0,8,15,2D,05,80,05,01,6D,6C,
55609465,00000220,false,Rx,0,8,B8,2C,05,80,01,01,4B,D1,
55611394,00000511,false,Rx,0,8,00,00,00,F8,00,00,00,C0,
55613516,00000510,false,Rx,0,8,00,00,00,C0,00,00,FC,FF,
55616027,00000310,false,Rx,0,8,40,05,FC,FF,00,00,FF,FF,
55616417,00000600,false,Rx,0,8,5B,5B,8A,FF,11,27,90,41,
55617419,00000200,false,Rx,0,8,12,00,00,80,A7,11,B8,BD,
55618429,00000210,false,Rx,0,8,1E,2D,05,80,05,11,6D,DB,
55619450,00000220,false,Rx,0,8,A5,2C,05,80,01,11,49,90,
55622471,00000110,false,Rx,0,8,FF,7F,FE,7F,AE,0F,3D,8A,
55626416,00000600,false,Rx,0,8,5B,5B,8A,FF,12,27,90,41,
55627424,00000200,false,Rx,0,8,09,00,00,80,AA,21,BF,D2,
55628003,00000100,false,Rx,0,4,AA,91,FF,91,00,00,00,00,
55628179,00000300,false,Rx,0,4,FF,FE,FF,FF,00,00,00,00,
55628427,00000210,false,Rx,0,8,17,2D,05,80,05,21,6D,56,
55629471,00000220,false,Rx,0,8,B8,2C,05,80,01,21,4A,09,
55636034,00000310,false,Rx,0,8,40,05,FC,FF,00,00,FF,FF,
55636415,00000600,false,Rx,0,8,5B,5B,8A,FF,12,27,90,41,
55637426,00000200,false,Rx,0,8,13,00,00,80,AA,31,BC,24,
55638435,00000210,false,Rx,0,8,0D,2D,05,80,05,31,6E,A0,
55639456,00000220,false,Rx,0,8,9A,2C,05,80,01,31,4D,47,
55642467,00000110,false,Rx,0,8,FF,7F,FE,7F,AE,1F,3C,46,
55646403,00000600,false,Rx,0,8,5B,5B,8A,FF,12,27,90,41,
55647421,00000200,false,Rx,0,8,11,00,00,80,AA,41,BC,22,
55647999,00000100,false,Rx,0,4,AA,A1,FF,85,00,00,00,00,
55648175,00000300,false,Rx,0,4,FF,FE,FF,FF,00,00,00,00,
55648434,00000210,false,Rx,0,8,17,2D,05,80,05,41,6D,7E,
55649469,00000220,false,Rx,0,8,B0,2C,05,80,01,41,4B,69,
55656039,00000310,false,Rx,0,8,40,05,FC,FF,00,00,FF,FF,
55656409,00000600,false,Rx,0,8,5B,5B,8A,FF,12,27,90,41,
55657420,00000200,false,Rx,0,8,11,00,00,80,7A,51,E0,2E,
55658430,00000210,false,Rx,0,8,18,2D,05,80,05,51,6C,4D,
55659462,00000220,false,Rx,0,8,C0,2C,05,80,01,51,41,95,
55662462,00000110,false,Rx,0,8,FF,7F,FE,7F,AE,2F,3C,52,
55666419,00000600,false,Rx,0,8,5B,5B,8A,FF,11,27,8F,41,
55667426,00000200,false,Rx,0,8,11,00,00,80,AA,61,BD,FA,
55667995,00000100,false,Rx,0,4,AA,B1,FF,7E,00,00,00,00,
55668181,00000300,false,Rx,0,4,FF,FE,FF,FF,00,00,00,00,
55668430,00000210,false,Rx,0,8,0D,2D,05,80,05,61,6E,9C,
55669475,00000220,false,Rx,0,8,A5,2C,05,80,01,61,48,74,
55676044,00000310,false,Rx,0,8,40,05,FC,FF,00,00,FF,FF,
55676415,00000600,false,Rx,0,8,5B,5B,8A,FF,12,27,90,41,
55677436,00000200,false,Rx,0,8,0B,00,00,80,AA,71,BE,0C,
55678435,00000210,false,Rx,0,8,15,2D,05,80,05,71,6C,88,
55679458,00000220,false,Rx,0,8,B8,2C,05,80,01,71,4A,35,
55682467,00000110,false,Rx,0,8,FF,7F,FE,7F,AE,3F,3D,9E,
55686424,00000600,false,Rx,0,8,5B,5B,8A,FF,11,27,90,41,
55687441,00000200,false,Rx,0,8,0E,00,00,80,AA,81,BE,1D,
55687999,00000100,false,Rx,0,4,AA,C1,FF,AD,00,00,00,00,
55688185,00000300,false,Rx,0,4,FF,FE,FF,FF,00,00,00,00,
55688434,00000210,false,Rx,0,8,15,2D,05,80,05,81,6C,CC,
55689479,00000220,false,Rx,0,8,C3,2C,05,80,01,81,40,3A,
55696049,00000310,false,Rx,0,8,40,05,FC,FF,00,00,FF,FF,
55696419,00000600,false,Rx,0,8,5B,5B,8A,FF,12,27,90,41,
55697431,00000200,false,Rx,0,8,16,00,00,80,A7,91,B8,99,
55698440,00000210,false,Rx,0,8,17,2D,05,80,05,91,6C,E2,
55699463,00000220,false,Rx,0,8,7B,2C,05,80,01,91,5A,8E,
55702473,00000110,false,Rx,0,8,FF,7F,FE,7F,AE,4F,3C,7A,
55706044,00000322,false,Rx,0,8,EC,0A,00,FF,23,00,C3,0E,
55706445,00000600,false,Rx,0,8,5B,5B,8A,FF,11,27,90,41,
55707446,00000200,false,Rx,0,8,13,00,00,80,AA,A1,BC,48,
55707993,00000100,false,Rx,0,4,AA,D1,FF,56,00,00,00,00,
55708179,00000300,false,Rx,0,4,FF,FE,FF,FF,00,00,00,00,
55708449,00000210,false,Rx,0,8,17,2D,05,80,05,A1,6C,F6,
55709533,00000220,false,Rx,0,8,B8,2C,05,80,01,A1,4B,A9,
55716048,00000310,false,Rx,0,8,40,05,FC,FF,00,00,FF,FF,
55716439,00000600,false,Rx,0,8,5B,5B,8A,FF,11,27,90,41,
55717450,00000200,false,Rx,0,8,0D,00,00,80,AA,B1,BE,3A,
55718449,00000210,false,Rx,0,8,15,2D,05,80,05,B1,6C,D8,
55719482,00000220,false,Rx,0,8,CB,2C,05,80,01,B1,41,66,
55722482,00000110,false,Rx,0,8,FF,7F,FE,7F,AE,5F,3D,B6,
55726437,00000600,false,Rx,0,8,5B,5B,8A,FF,11,27,90,41,
55727455,00000200,false,Rx,0,8,0C,00,00,80,AA,C1,BE,0F,
55727992,00000100,false,Rx,0,4,AA,E1,FF,42,00,00,00,00,
55728178,00000300,false,Rx,0,4,FF,FE,FF,FF,00,00,00,00,
55728460,00000210,false,Rx,0,8,13,2D,05,80,05,C1,6D,5A,
55729495,00000220,false,Rx,0,8,AD,2C,05,80,01,C1,49,44,
55736055,00000310,false,Rx,0,8,40,05,FC,FF,00,00,FF,FF,
55736446,00000600,false,Rx,0,8,5B,5B,8A,FF,11,27,90,41,
55736674,000005F0,false,Rx,0,8,C4,4F,49,1F,14,27,03,3E,
55737459,00000200,false,Rx,0,8,10,00,00,80,7A,D1,E0,5F,
55738460,00000210,false,Rx,0,8,0F,2D,05,80,05,D1,6E,CA,
55739482,00000220,false,Rx,0,8,B0,2C,05,80,01,D1,4B,05,
55742493,00000110,false,Rx,0,8,FF,7F,FE,7F,AE,6F,3D,A2,
55746428,00000600,false,Rx,0,8,5B,5B,8A,FF,12,27,90,41,
55747446,00000200,false,Rx,0,8,0C,00,00,80,AA,E1,BF,D7,
55747993,00000100,false,Rx,0,4,AA,01,FF,FD,00,00,00,00,
55748179,00000300,false,Rx,0,4,FF,FE,FF,FF,00,00,00,00,
55748449,00000210,false,Rx,0,8,0E,2D,05,80,05,E1,6F,0F,
55749494,00000220,false,Rx,0,8,AD,2C,05,80,01,E1,48,9C,
55756065,00000310,false,Rx,0,8,40,05,FC,FF,00,00,FF,FF,
55756435,00000600,false,Rx,0,8,5B,5B,8A,FF,11,27,90,41,
55757446,00000200,false,Rx,0,8,0F,00,00,80,AA,01,BE,6C,
55758455,00000210,false,Rx,0,8,22,2D,05,80,05,01,69,2B,
55759478,00000220,false,Rx,0,8,B8,2C,05,80,01,01,4B,D1,
55762489,00000110,false,Rx,0,8,FF,7F,FE,7F,AE,7F,3C,6E,
55766434,00000600,false,Rx,0,8,5B,5B,8A,FF,12,27,90,41,
55767452,00000200,false,Rx,0,8,18,00,00,80,AA,11,BC,87,
55767999,00000100,false,Rx,0,4,AA,11,FF,06,00,00,00,00,
55768175,00000300,false,Rx,0,4,FF,FE,FF,FF,00,00,00,00,
55768455,00000210,false,Rx,0,8,17,2D,05,80,05,11,6D,42,
55769490,00000220,false,Rx,0,8,B8,2C,05,80,01,11,4A,1D,
55776060,00000310,false,Rx,0,8,40,05,FC,FF,00,00,FF,FF,
55776451,00000600,false,Rx,0,8,5B,5B,8A,FF,11,27,90,41,
55777453,00000200,false,Rx,0,8,0F,00,00,80,A7,21,BB,24,
55778453,00000210,false,Rx,0,8,22,2D,05,80,05,21,68,F3,
55779486,00000220,false,Rx,0,8,AD,2C,05,80,01,21,48,CC,
55782497,00000110,false,Rx,0,8,FF,7F,FE,7F,AE,8F,3C,2A,
55786441,00000600,false,Rx,0,8,5B,5B,8A,FF,12,27,90,41,
55787449,00000200,false,Rx,0,8,12,00,00,80,AA,31,BD,F5,
55787996,00000100,false,Rx,0,4,AA,21,FF,12,00,00,00,00,
55788172,00000300,false,Rx,0,4,FF,FE,FF,FF,00,00,00,00,
55788462,00000210,false,Rx,0,8,1E,2D,05,80,05,31,6C,03,
55789507,00000220,false,Rx,0,8,C3,2C,05,80,01,31,41,8E,
55796066,00000310,false,Rx,0,8,40,05,FC,FF,00,00,FF,FF,
55796447,00000600,false,Rx,0,8,5B,5B,8A,FF,11,27,90,41,
55797458,00000200,false,Rx,0,8,0F,00,00,80,AA,41,BF,9C,
55798458,00000210,false,Rx,0,8,1A,2D,05,80,05,41,6C,63,
55799490,00000220,false,Rx,0,8,C3,2C,05,80,01,41,40,6A,
55802492,00000110,false,Rx,0,8,FF,7F,FE,7F,AE,9F,3D,E6,
55806457,00000600,false,Rx,0,8,5B,5B,8A,FF,11,27,90,41,
55807464,00000200,false,Rx,0,8,10,00,00,80,AA,51,BC,3F,
55807991,00000100,false,Rx,0,4,AA,31,FF,E9,00,00,00,00,
55808177,00000300,false,Rx,0,4,FF,FE,FF,FF,00,00,00,00,
55808468,00000210,false,Rx,0,8,1A,2D,05,80,05,51,6D,AF,
55809512,00000220,false,Rx,0,8,A5,2C,05,80,01,51,48,60,
55811436,00000511,false,Rx,0,8,00,00,00,F8,00,00,00,C0,
55813556,00000510,false,Rx,0,8,00,00,00,C0,00,00,FC,FF,
55816078,00000310,false,Rx,0,8,40,05,FC,FF,00,00,FF,FF,
55816462,00000600,false,Rx,0,8,5B,5B,8A,FF,11,27,8F,41,
55817461,00000200,false,Rx,0,8,0E,00,00,80,7A,61,E2,55,
55818473,00000210,false,Rx,0,8,11,2D,05,80,05,61,6C,C0,
55819503,00000220,false,Rx,0,8,CE,2C,05,80,01,61,40,AF,
55822510,00000110,false,Rx,0,8,FF,7F,FE,7F,AE,AF,3D,F2,
55826455,00000600,false,Rx,0,8,5B,5B,8A,FF,12,27,90,41,
55827463,00000200,false,Rx,0,8,0F,00,00,80,AA,71,BF,88,
55828000,00000100,false,Rx,0,4,AA,41,FF,3A,00,00,00,00,
55828176,00000300,false,Rx,0,4,FF,FE,FF,FF,00,00,00,00,
55828477,00000210,false,Rx,0,8,13,2D,05,80,05,71,6C,EE,
55829521,00000220,false,Rx,0,8,B0,2C,05,80,01,71,4B,7D,
55836081,00000310,false,Rx,0,8,40,05,FC,FF,00,00,FF,FF,
55836461,00000600,false,Rx,0,8,5B,5B,8A,FF,12,27,90,41,
55837473,00000200,false,Rx,0,8,0D,00,00,80,AA,81,BE,2E,
55838485,00000210,false,Rx,0,8,19,2D,05,80,05,81,6C,00,
55839507,00000220,false,Rx,0,8,9A,2C,05,80,01,81,4C,F3,
55842518,00000110,false,Rx,0,8,FF,7F,FE,7F,AE,BF,3C,3E,
55846453,00000600,false,Rx,0,8,5B,5B,8A,FF,11,27,8F,41,
55847470,00000200,false,Rx,0,8,0F,00,00,80,AA,91,BE,00,
55847997,00000100,false,Rx,0,4,AA,51,FF,C1,00,00,00,00,
55848183,00000300,false,Rx,0,4,FF,FE,FF,FF,00,00,00,00,
55848474,00000210,false,Rx,0,8,13,2D,05,80,05,91,6D,66,
55849508,00000220,false,Rx,0,8,A2,2C,05,80,01,91,49,87,
55856081,00000310,false,Rx,0,8,40,05,FC,FF,00,00,FF,FF,
55856461,00000600,false,Rx,0,8,5B,5B,8A,FF,11,27,90,41,
55857472,00000200,false,Rx,0,8,0F,00,00,80,A7,A1,BA,84,
55858472,00000210,false,Rx,0,8,20,2D,05,80,05,A1,68,B1,
55859504,00000220,false,Rx,0,8,C0,2C,05,80,01,A1,41,D1,
55862505,00000110,false,Rx,0,8,FF,7F,FE,7F,AE,CF,3D,DA,
55866460,00000600,false,Rx,0,8,5B,5B,8A,FF,11,27,8F,41,
55867467,00000200,false,Rx,0,8,11,00,00,80,AA,B1,BC,66,
55867994,00000100,false,Rx,0,4,AA,61,FF,D5,00,00,00,00,
55868180,00000300,false,Rx,0,4,FF,FE,FF,FF,00,00,00,00,
55868471,00000210,false,Rx,0,8,1A,2D,05,80,05,B1,6C,27,
55869515,00000220,false,Rx,0,8,A5,2C,05,80,01,B1,49,E8,
55876086,00000310,false,Rx,0,8,40,05,FC,FF,00,00,FF,FF,
55876455,00000600,false,Rx,0,8,5B,5B,8A,FF,12,27,90,41,
55877477,00000200,false,Rx,0,8,13,00,00,80,AA,C1,BC,60,
55878487,00000210,false,Rx,0,8,0F,2D,05,80,05,C1,6F,06,
55879510,00000220,false,Rx,0,8,D3,2C,05,80,01,C1,43,5A,
55882512,00000110,false,Rx,0,8,FF,7F,FE,7F,AE,DF,3C,16,
55886458,00000600,false,Rx,0,8,5B,5B,8A,FF,12,27,90,41,
55887476,00000200,false,Rx,0,8,14,00,00,80,AA,D1,BC,1B,
55887992,00000100,false,Rx,0,4,AA,71,FF,2E,00,00,00,00,
55888178,00000300,false,Rx,0,4,FF,FE,FF,FF,00,00,00,00,
55888480,00000210,false,Rx,0,8,1E,2D,05,80,05,D1,6D,8B,
55889523,00000220,false,Rx,0,8,CE,2C,05,80,01,D1,41,1B,
55896085,00000310,false,Rx,0,8,40,05,FC,FF,00,00,FF,FF,
55896464,00000600,false,Rx,0,8,5B,5B,8A,FF,12,27,90,41,
55897486,00000200,false,Rx,0,8,0E,00,00,80,7A,E1,E3,F5,
55898486,00000210,false,Rx,0,8,1E,2D,05,80,05,E1,6D,9F,
55899508,00000220,false,Rx,0,8,CB,2C,05,80,01,E1,41,5A,
55902518,00000110,false,Rx,0,8,FF,7F,FE,7F,AE,EF,3C,02,
55906475,00000600,false,Rx,0,8,5B,5B,8A,FF,12,27,90,41,
55907482,00000200,false,Rx,0,8,14,00,00,80,AA,01,BD,87,
55907999,00000100,false,Rx,0,4,AA,81,FF,6A,00,00,00,00,
55908174,00000300,false,Rx,0,4,FF,FE,FF,FF,00,00,00,00,
55908496,00000210,false,Rx,0,8,17,2D,05,80,05,01,6C,8E,
55909540,00000220,false,Rx,0,8,B8,2C,05,80,01,01,4B,D1,
55916091,00000310,false,Rx,0,8,40,05,FC,FF,00,00,FF,FF,
55916481,00000600,false,Rx,0,8,5B,5B,8A,FF,11,27,90,41,
55917492,00000200,false,Rx,0,8,17,00,00,80,AA,11,BC,78,
55918502,00000210,false,Rx,0,8,1E,2D,05,80,05,11,6D,DB,
55919515,00000220,false,Rx,0,8,86,2C,05,80,01,11,4E,C3,
55922527,00000110,false,Rx,0,8,FF,7F,FE,7F,AE,0F,3D,8A,
55926485,00000600,false,Rx,0,8,5B,5B,8A,FF,11,27,90,41,
55927493,00000200,false,Rx,0,8,11,00,00,80,AA,21,BC,0A,
55927999,00000100,false,Rx,0,4,AA,91,FF,91,00,00,00,00,
55928185,00000300,false,Rx,0,4,FF,FE,FF,FF,00,00,00,00,
55928496,00000210,false,Rx,0,8,17,2D,05,80,05,21,6D,56,
55929530,00000220,false,Rx,0,8,AD,2C,05,80,01,21,48,CC,
55936102,00000310,false,Rx,0,8,40,05,FC,FF,00,00,FF,FF,
55936481,00000600,false,Rx,0,8,5B,5B,8A,FF,11,27,8F,41,
55937493,00000200,false,Rx,0,8,0E,00,00,80,A7,31,BB,39,
55938503,00000210,false,Rx,0,8,17,2D,05,80,05,31,6C,9A,
55939524,00000220,false,Rx,0,8,9A,2C,05,80,01,31,4D,47,
55942535,00000110,false,Rx,0,8,FF,7F,FF,7F,AE,1F,3D,BA,
55946470,00000600,false,Rx,0,8,5B,5B,8A,FF,11,27,90,41,
55947489,00000200,false,Rx,0,8,13,00,00,80,AA,41,BD,C0,
55948004,00000100,false,Rx,0,4,AA,A1,FF,85,00,00,00,00,
55948180,00000300,false,Rx,0,4,FF,FE,FF,FF,00,00,00,00,
55948492,00000210,false,Rx,0,8,0D,2D,05,80,05,41,6F,44,
55949535,00000220,false,Rx,0,8,91,2C,05,80,01,41,4D,D8,
55956097,00000310,false,Rx,0,8,40,05,FC,FF,00,00,FF,FF,
55956486,00000600,false,Rx,0,8,5B,5B,8A,FF,11,27,90,41,
55957488,00000200,false,Rx,0,8,12,00,00,80,AA,51,BD,DD,
55958498,00000210,false,Rx,0,8,13,2D,05,80,05,51,6D,36,
55959520,00000220,false,Rx,0,8,B8,2C,05,80,01,51,4B,ED,
55962532,00000110,false,Rx,0,8,FF,7F,FE,7F,AE,2F,3C,52,
55966480,00000600,false,Rx,0,8,5B,5B,8A,FF,11,27,90,41,
55967489,00000200,false,Rx,0,8,13,00,00,80,AA,61,BC,18,
55967994,00000100,false,Rx,0,4,AA,B1,FF,7E,00,00,00,00,
55968180,00000300,false,Rx,0,4,FF,FE,FF,FF,00,00,00,00,
55968492,00000210,false,Rx,0,8,13,2D,05,80,05,61,6D,22,
55969535,00000220,false,Rx,0,8,91,2C,05,80,01,61,4C,00,
55976107,00000310,false,Rx,0,8,40,05,FC,FF,00,00,FF,FF,
55976486,00000600,false,Rx,0,8,5B,5B,8A,FF,11,27,90,41,
55977498,00000200,false,Rx,0,8,11,00,00,80,7A,71,E1,F6,
55978497,00000210,false,Rx,0,8,11,2D,05,80,05,71,6D,0C,
55979519,00000220,false,Rx,0,8,8F,2C,05,80,01,71,4E,72,
55982530,00000110,false,Rx,0,8,FF,7F,FE,7F,AE,3F,3D,9E,
55986485,00000600,false,Rx,0,8,5B,5B,8A,FF,12,27,90,41,
55987493,00000200,false,Rx,0,8,0F,00,00,80,AA,81,BF,CC,
55987999,00000100,false,Rx,0,4,AA,C1,FF,AD,00,00,00,00,
55988176,00000300,false,Rx,0,4,FF,FE,FF,FF,00,00,00,00,
55988507,00000210,false,Rx,0,8,13,2D,05,80,05,81,6C,AA,
55989540,00000220,false,Rx,0,8,91,2C,05,80,01,81,4D,88,
55996113,00000310,false,Rx,0,8,40,05,FC,FF,00,00,FF,FF,
55996492,00000600,false,Rx,0,8,5B,5B,8A,FF,11,27,90,41,
55997504,00000200,false,Rx,0,8,14,00,00,80,AA,91,BD,EB,
55998504,00000210,false,Rx,0,8,1A,2D,05,80,05,91,6D,FF,
55999526,00000220,false,Rx,0,8,AD,2C,05,80,01,91,49,78,
56002536,00000110,false,Rx,0,8,FF,7F,FE,7F,AE,4F,3C,7A,
56006502,00000600,false,Rx,0,8,5B,5B,8A,FF,11,27,90,41,
56007511,00000200,false,Rx,0,8,14,00,00,80,AA,A1,BD,FF,
56007995,00000100,false,Rx,0,4,AA,D1,FF,56,00,00,00,00,
