Time Stamp,ID,Extended,Dir,Bus,LEN,D1,D2,D3,D4,D5,D6,D7,D8
53904019,00000200,false,Rx,0,8,02,00,00,80,22,01,D9,71,
53904975,00000210,false,Rx,0,8,F6,09,00,80,00,04,C8,A7,
53905595,00000410,false,Rx,0,8,FF,FF,FF,FF,FF,FF,FF,FF,
53905978,00000220,false,Rx,0,8,23,00,00,80,01,01,C6,F0,
53906217,00000511,false,Rx,0,8,40,00,00,F8,49,92,04,C9,
53907044,00000230,false,Rx,0,8,4A,00,11,4C,45,01,39,CA,
53908056,00000510,false,Rx,0,8,49,92,00,C8,49,92,FC,FF,
53909098,00000550,false,Rx,0,8,00,00,FF,FF,FF,FF,FF,FF,
53909337,00000525,false,Rx,0,8,00,00,00,C0,00,00,FC,FF,
53909586,00000526,false,Rx,0,8,00,00,FC,FF,00,F0,FF,FF,
53911072,00000600,false,Rx,0,8,00,00,1E,FF,11,27,12,27,
53911321,00000310,false,Rx,0,8,01,00,FC,FF,00,00,FF,FF,
53911560,000005F0,false,Rx,0,8,B6,76,4D,1F,14,27,04,64,
53914098,00000200,false,Rx,0,8,02,00,00,80,AA,11,BE,BD,
53915064,00000210,false,Rx,0,8,21,0A,00,80,00,14,9F,4C,
53916056,00000220,false,Rx,0,8,46,01,00,80,01,11,F3,09,
53917067,00000524,false,Rx,0,8,00,80,FF,FF,00,90,FF,FF,
53918259,00000520,false,Rx,0,8,41,80,20,C0,00,90,FF,FF,
53918499,00000521,false,Rx,0,8,00,F0,FF,FF,49,92,E4,FF,
53918727,00000522,false,Rx,0,8,4B,92,FC,FF,49,92,E4,FF,
53918976,00000523,false,Rx,0,8,F9,FF,FF,FF,F9,FF,FF,FF,
53919204,00000110,false,Rx,0,8,FF,7F,FE,7F,0D,0F,45,7A,
53921066,00000600,false,Rx,0,8,00,00,1E,FF,11,27,11,27,
53923094,00000420,false,Rx,0,8,00,00,00,00,42,00,00,FF,
53924116,00000200,false,Rx,0,8,07,00,00,80,AA,21,BE,FC,
53925063,00000210,false,Rx,0,8,33,0A,00,80,00,24,9C,2A,
53925611,00000410,false,Rx,0,8,C4,FF,FF,F8,FF,FF,FF,FF,
53926066,00000220,false,Rx,0,8,5A,01,00,80,01,21,F1,41,
53928150,00000510,false,Rx,0,8,49,92,24,C8,49,92,FC,FF,
53930673,00000310,false,Rx,0,8,01,00,FC,FF,00,00,FF,FF,
53931084,00000600,false,Rx,0,8,00,00,1E,FF,11,27,12,27,
53934113,00000200,false,Rx,0,8,02,00,00,80,AA,31,BF,65,
53935079,00000210,false,Rx,0,8,19,0A,00,80,00,34,9A,2C,
53936069,00000220,false,Rx,0,8,1D,01,00,80,01,31,FF,FA,
53937080,00000524,false,Rx,0,8,00,80,FF,FF,49,92,FF,FF,
53938265,00000520,false,Rx,0,8,41,92,20,C9,41,90,FF,FF,
53938495,00000522,false,Rx,0,8,4B,92,FC,FF,49,92,E4,FF,
53939135,00000110,false,Rx,0,8,FF,7F,FE,7F,0D,1F,44,B6,
53941070,00000600,false,Rx,0,8,00,00,1E,FF,11,27,11,27,
53944119,00000200,false,Rx,0,8,08,00,00,80,AA,41,BE,2B,
53945075,00000210,false,Rx,0,8,30,0A,00,80,00,44,9C,31,
53946076,00000220,false,Rx,0,8,30,01,00,80,01,41,F8,63,
53950692,00000310,false,Rx,0,8,01,00,FC,FF,00,00,FF,FF,
53951073,00000600,false,Rx,0,8,00,00,1E,FF,11,27,11,27,
53951321,000005F1,false,Rx,0,8,55,28,28,FF,FF,FF,FF,FF,
53953054,00000510,false,Rx,0,8,49,92,24,C9,49,92,FC,FF,
53954117,00000200,false,Rx,0,8,01,00,00,80,7A,51,E2,BE,
53955085,00000210,false,Rx,0,8,1F,0A,00,80,00,54,9A,62,
53956076,00000220,false,Rx,0,8,5A,01,00,80,01,51,F0,A5,
53958251,00000522,false,Rx,0,8,4B,92,FC,FF,49,92,E4,FF,
53959145,00000110,false,Rx,0,8,FF,7F,FE,7F,0D,2F,44,A2,
53961091,00000600,false,Rx,0,8,00,00,1E,FF,11,27,11,27,
53964128,00000200,false,Rx,0,8,05,00,00,80,AA,61,BE,EE,
53965094,00000210,false,Rx,0,8,2E,0A,00,80,00,64,9E,57,
53966086,00000220,false,Rx,0,8,5A,01,00,80,01,61,F0,B1,
53970702,00000310,false,Rx,0,8,01,00,FC,FF,00,00,FF,FF,
53971092,00000600,false,Rx,0,8,00,00,1E,FF,11,27,12,27,
53974139,00000200,false,Rx,0,8,FF,FF,FF,7F,AA,71,BF,48,
53975105,00000210,false,Rx,0,8,1B,0A,00,80,00,74,9A,3E,
53976098,00000220,false,Rx,0,8,51,01,00,80,01,71,F0,06,
53978271,00000522,false,Rx,0,8,4B,92,FC,FF,49,92,E4,FF,
53979156,00000110,false,Rx,0,8,FF,7F,FE,7F,0D,3F,45,6E,
53980095,00000511,false,Rx,0,8,40,00,00,F8,49,96,04,C9,
53980323,00000521,false,Rx,0,8,00,F0,FF,FF,4B,92,E4,FF,
53981098,00000600,false,Rx,0,8,00,00,1E,FF,11,27,11,27,
53984146,00000200,false,Rx,0,8,06,00,00,80,AA,81,BF,55,
53985112,00000210,false,Rx,0,8,1F,0A,00,80,00,84,9B,FE,
53986104,00000220,false,Rx,0,8,46,01,00,80,01,81,F3,65,
53990720,00000310,false,Rx,0,8,01,00,FC,FF,00,00,FF,FF,
53991119,00000600,false,Rx,0,8,00,00,1E,FF,11,27,11,27,
53994157,00000200,false,Rx,0,8,07,00,00,80,A7,91,BB,D8,
53995123,00000210,false,Rx,0,8,2C,0A,00,80,00,94,9F,F1,
53996115,00000220,false,Rx,0,8,4F,01,00,80,01,91,F2,30,
53998288,00000522,false,Rx,0,8,4B,92,FC,FF,49,92,E4,FF,
53999204,00000110,false,Rx,0,8,FF,7F,FE,7F,0D,4F,44,8A,
54000113,00000521,false,Rx,0,8,00,F0,FF,FF,CB,92,EC,FF,
54001133,00000600,false,Rx,0,8,00,00,1E,FF,11,27,11,27,
54001381,00000320,false,Rx,0,8,8E,06,00,FF,00,00,A7,00,
54004174,00000200,false,Rx,0,8,04,00,00,80,AA,A1,BF,6F,
54005150,00000210,false,Rx,0,8,21,0A,00,80,00,A4,9E,F8,
54005379,00000511,false,Rx,0,8,40,00,00,F8,C9,B6,04,C9,
54006134,00000220,false,Rx,0,8,5A,01,00,80,01,A1,F0,E1,
54010731,00000310,false,Rx,0,8,01,00,FC,FF,00,00,FF,FF,
54011141,00000600,false,Rx,0,8,00,00,1E,FF,12,27,12,27,
54014179,00000200,false,Rx,0,8,03,00,00,80,AA,B1,BF,14,
54015145,00000210,false,Rx,0,8,29,0A,00,80,00,B4,9E,7C,
54016147,00000220,false,Rx,0,8,51,01,00,80,01,B1,F0,56,
54018321,00000522,false,Rx,0,8,4B,92,FC,FF,49,92,E4,FF,
54019205,00000110,false,Rx,0,8,FF,7F,FE,7F,0D,5F,45,46,
54020123,00000521,false,Rx,0,8,00,F0,FF,FF,CB,96,EC,FF,
54021153,00000600,false,Rx,0,8,00,00,1E,FF,11,27,11,27,
54024201,00000200,false,Rx,0,8,00,00,00,80,AA,C1,BE,C3,
54025157,00000210,false,Rx,0,8,2A,0A,00,80,00,C4,9F,AB,
54026149,00000220,false,Rx,0,8,65,01,00,80,01,C1,F5,C6,
54030748,00000310,false,Rx,0,8,01,00,FC,FF,00,00,FF,FF,
54031157,00000600,false,Rx,0,8,00,00,1E,FF,11,27,11,27,
54034196,00000200,false,Rx,0,8,06,00,00,80,7A,D1,E2,A9,
54035162,00000210,false,Rx,0,8,47,0A,00,80,00,D4,96,DA,
54036154,00000220,false,Rx,0,8,46,01,00,80,01,D1,F3,59,
54038329,00000522,false,Rx,0,8,4B,92,FC,FF,49,92,E4,FF,
54039223,00000110,false,Rx,0,8,FF,7F,FE,7F,0D,6F,45,52,
54040121,00000521,false,Rx,0,8,00,F0,FF,FF,CB,96,EC,FF,
54041151,00000600,false,Rx,0,8,00,00,1E,FF,11,27,11,27,
54044201,00000200,false,Rx,0,8,07,00,00,80,AA,E1,BE,AC,
54045157,00000210,false,Rx,0,8,35,0A,00,80,00,E4,9C,1C,
54046150,00000220,false,Rx,0,8,44,01,00,80,01,E1,F2,AF,
54050767,00000310,false,Rx,0,8,01,00,FC,FF,00,00,FF,FF,
54051165,00000600,false,Rx,0,8,00,00,1E,FF,11,27,12,27,
54054213,00000200,false,Rx,0,8,02,00,00,80,AA,01,BF,71,
54055170,00000210,false,Rx,0,8,26,0A,00,80,00,04,9F,37,
54056161,00000220,false,Rx,0,8,46,01,00,80,01,01,F2,C5,
54058335,00000522,false,Rx,0,8,4B,92,FC,FF,49,92,E4,FF,
54059229,00000110,false,Rx,0,8,FF,7F,FE,7F,0D,7F,44,9E,
54060148,00000521,false,Rx,0,8,00,F0,FF,FF,CB,96,EC,FF,
54061168,00000600,false,Rx,0,8,00,00,1E,FF,11,27,11,27,
54064205,00000200,false,Rx,0,8,06,00,00,80,AA,11,BF,39,
54065172,00000210,false,Rx,0,8,2A,0A,00,80,00,14,9E,37,
54066173,00000220,false,Rx,0,8,30,01,00,80,01,11,F8,5F,
54070780,00000310,false,Rx,0,8,01,00,FC,FF,00,00,FF,FF,
54071178,00000600,false,Rx,0,8,00,00,1E,FF,10,27,11,27,
54071407,000005F0,false,Rx,0,8,B6,76,4D,1F,14,27,04,64,
54074220,00000200,false,Rx,0,8,05,00,00,80,A7,21,BB,8E,
54075187,00000210,false,Rx,0,8,19,0A,00,80,00,24,9B,E0,
54076178,00000220,false,Rx,0,8,46,01,00,80,01,21,F3,1D,
54078352,00000522,false,Rx,0,8,4B,92,FC,FF,49,92,E4,FF,
54079246,00000110,false,Rx,0,8,FF,7F,FE,7F,0D,8F,44,DA,
54080164,00000521,false,Rx,0,8,00,F0,FF,FF,CB,96,EC,FF,
54081184,00000600,false,Rx,0,8,00,00,1E,FF,11,27,11,27,
54084232,00000200,false,Rx,0,8,06,00,00,80,AA,31,BE,E1,
54085189,00000210,false,Rx,0,8,2C,0A,00,80,00,34,9F,89,
54086190,00000220,false,Rx,0,8,30,01,00,80,01,31,F9,87,
54090799,00000310,false,Rx,0,8,01,00,FC,FF,00,00,FF,FF,
54091198,00000600,false,Rx,0,8,00,00,1E,FF,11,27,12,27,
54094237,00000200,false,Rx,0,8,05,00,00,80,AA,41,BF,36,
54095204,00000210,false,Rx,0,8,24,0A,00,80,00,44,9F,25,
54096195,00000220,false,Rx,0,8,46,01,00,80,01,41,F3,35,
54098360,00000522,false,Rx,0,8,4B,92,FC,FF,49,92,E4,FF,
54099315,00000110,false,Rx,0,8,FF,7F,FE,7F,0D,9F,45,16,
54100184,00000521,false,Rx,0,8,00,F0,FF,FF,CB,96,EC,FF,
54101214,00000600,false,Rx,0,8,00,00,1E,FF,11,27,11,27,
54101453,00000321,false,Rx,0,8,8E,06,00,FF,00,00,A7,00,
54104255,00000200,false,Rx,0,8,0A,00,00,80,AA,51,BE,05,
54105212,00000210,false,Rx,0,8,30,0A,00,80,00,54,9D,FD,
54106213,00000220,false,Rx,0,8,3E,01,00,80,01,51,F8,81,
54106451,00000511,false,Rx,0,8,40,00,00,F8,C9,B6,04,C9,
54108289,00000510,false,Rx,0,8,49,92,24,C9,49,92,FC,FF,
54109244,00000550,false,Rx,0,8,00,00,FF,FF,FF,FF,FF,FF,
54109493,00000525,false,Rx,0,8,00,00,00,C0,00,00,FC,FF,
54109732,00000526,false,Rx,0,8,00,00,FC,FF,00,F0,FF,FF,
54111207,00000600,false,Rx,0,8,00,00,1E,FF,11,27,12,27,
54111457,00000310,false,Rx,0,8,00,00,FC,FF,00,00,FF,FF,
54114260,00000200,false,Rx,0,8,04,00,00,80,7A,61,E2,FF,
54115217,00000210,false,Rx,0,8,32,0A,00,80,00,64,9C,0B,
54116218,00000220,false,Rx,0,8,3B,01,00,80,01,61,F8,C0,
54118392,00000522,false,Rx,0,8,4B,92,FC,FF,49,92,E4,FF,
54119286,00000110,false,Rx,0,8,FF,7F,FE,7F,0D,AF,45,02,
54120194,00000521,false,Rx,0,8,00,F0,FF,FF,CB,96,EC,FF,
54121225,00000600,false,Rx,0,8,00,00,1E,FF,11,27,11,27,
54124272,00000200,false,Rx,0,8,03,00,00,80,AA,71,BF,44,
54125229,00000210,false,Rx,0,8,21,0A,00,80,00,74,9F,64,
54126230,00000220,false,Rx,0,8,51,01,00,80,01,71,F0,06,
54130826,00000310,false,Rx,0,8,00,00,FC,FF,00,00,FF,FF,
54131226,00000600,false,Rx,0,8,00,00,1E,FF,11,27,12,27,
54134274,00000200,false,Rx,0,8,07,00,00,80,AA,81,BE,84,
54135240,00000210,false,Rx,0,8,28,0A,00,80,00,84,9F,B9,
54136232,00000220,false,Rx,0,8,3B,01,00,80,01,81,F9,48,
54138406,00000522,false,Rx,0,8,4B,92,FC,FF,49,92,E4,FF,
54139300,00000110,false,Rx,0,8,FF,7F,FE,7F,0D,BF,44,CE,
54140209,00000521,false,Rx,0,8,00,F0,FF,FF,CB,96,EC,FF,
54141230,00000600,false,Rx,0,8,00,00,1E,FF,11,27,11,27,
54144278,00000200,false,Rx,0,8,02,00,00,80,AA,91,BF,1D,
54145234,00000210,false,Rx,0,8,1D,0A,00,80,00,94,9B,D0,
54146235,00000220,false,Rx,0,8,0C,01,00,80,01,91,FC,C3,
54150841,00000310,false,Rx,0,8,00,00,FC,FF,00,00,FF,FF,
54151241,00000600,false,Rx,0,8,00,00,1E,FF,11,27,11,27,
54154278,00000200,false,Rx,0,8,02,00,00,80,A7,A1,BB,99,
54155245,00000210,false,Rx,0,8,10,0A,00,80,00,A4,9A,D9,
54156245,00000220,false,Rx,0,8,30,01,00,80,01,A1,F9,EB,
54158409,00000522,false,Rx,0,8,4B,92,FC,FF,49,92,E4,FF,
54159304,00000110,false,Rx,0,8,FF,7F,FE,7F,0D,CF,45,2A,
54160223,00000521,false,Rx,0,8,00,F0,FF,FF,CB,96,EC,FF,
54161244,00000600,false,Rx,0,8,00,00,1E,FF,11,27,11,27,
54164291,00000200,false,Rx,0,8,05,00,00,80,AA,B1,BF,72,
54165248,00000210,false,Rx,0,8,21,0A,00,80,00,B4,9F,34,
54166249,00000220,false,Rx,0,8,33,01,00,80,01,B1,F8,14,
54170855,00000310,false,Rx,0,8,00,00,FC,FF,00,00,FF,FF,
54171255,00000600,false,Rx,0,8,00,00,1E,FF,11,27,12,27,
54174304,00000200,false,Rx,0,8,03,00,00,80,AA,C1,BE,F0,
54175259,00000210,false,Rx,0,8,1D,0A,00,80,00,C4,9B,EC,
54176251,00000220,false,Rx,0,8,46,01,00,80,01,C1,F2,95,
54178425,00000522,false,Rx,0,8,4B,92,FC,FF,49,92,E4,FF,
54179319,00000110,false,Rx,0,8,FF,7F,FE,7F,0D,DF,44,E6,
54180237,00000521,false,Rx,0,8,00,F0,FF,FF,CB,96,EC,FF,
54181258,00000600,false,Rx,0,8,00,00,1E,FF,11,27,12,27,
54184306,00000200,false,Rx,0,8,FF,FF,FF,7F,AA,D1,BF,30,
54185262,00000210,false,Rx,0,8,1B,0A,00,80,00,D4,9A,46,
54186263,00000220,false,Rx,0,8,3B,01,00,80,01,D1,F9,74,
54190871,00000310,false,Rx,0,8,00,00,FC,FF,00,00,FF,FF,
54191271,00000600,false,Rx,0,8,00,00,1E,FF,11,27,12,27,
54194309,00000200,false,Rx,0,8,09,00,00,80,7A,E1,E2,42,
54195275,00000210,false,Rx,0,8,18,0A,00,80,00,E4,9A,61,
54196266,00000220,false,Rx,0,8,15,01,00,80,01,E1,FF,2E,
54198439,00000522,false,Rx,0,8,4B,92,FC,FF,49,92,E4,FF,
54199344,00000110,false,Rx,0,8,FF,7F,FE,7F,0D,EF,44,F2,
54200263,00000521,false,Rx,0,8,00,F0,FF,FF,CB,96,EC,FF,
54201283,00000600,false,Rx,0,8,00,00,1E,FF,11,27,11,27,
54201522,00000322,false,Rx,0,8,8E,06,00,FF,00,00,A7,00,
54204336,00000200,false,Rx,0,8,02,00,00,80,AA,01,BF,71,
54205292,00000210,false,Rx,0,8,12,0A,00,80,00,04,9B,43,
54206282,00000220,false,Rx,0,8,15,01,00,80,01,01,FE,A6,
54210889,00000310,false,Rx,0,8,00,00,FC,FF,00,00,FF,FF,
54211289,00000600,false,Rx,0,8,00,00,1E,FF,11,27,13,27,
54214337,00000200,false,Rx,0,8,02,00,00,80,AA,11,BE,BD,
54215292,00000210,false,Rx,0,8,1D,0A,00,80,00,14,9A,70,
54216293,00000220,false,Rx,0,8,3B,01,00,80,01,11,F9,24,
54218468,00000522,false,Rx,0,8,4B,92,FC,FF,49,92,E4,FF,
54219362,00000110,false,Rx,0,8,FF,7F,FE,7F,0D,0F,45,7A,
54220270,00000521,false,Rx,0,8,00,F0,FF,FF,CB,96,EC,FF,
54221301,00000600,false,Rx,0,8,00,00,1E,FF,11,27,11,27,
54224340,00000200,false,Rx,0,8,05,00,00,80,AA,21,BF,1E,
54225306,00000210,false,Rx,0,8,28,0A,00,80,00,24,9F,C1,
54226296,00000220,false,Rx,0,8,65,01,00,80,01,21,F4,4E,
54230903,00000310,false,Rx,0,8,00,00,FC,FF,00,00,FF,FF,
54231303,00000600,false,Rx,0,8,00,00,1E,FF,11,27,11,27,
54231541,000005F0,false,Rx,0,8,B6,76,4D,1F,14,27,04,64,
54234344,00000200,false,Rx,0,8,02,00,00,80,A7,31,BB,F5,
54235311,00000210,false,Rx,0,8,28,0A,00,80,00,34,9E,0D,
54236313,00000220,false,Rx,0,8,5A,01,00,80,01,31,F0,8D,
54238476,00000522,false,Rx,0,8,4B,92,FC,FF,49,92,E4,FF,
54239371,00000110,false,Rx,0,8,FF,7F,FE,7F,0D,1F,44,B6,
54240280,00000521,false,Rx,0,8,00,F0,FF,FF,CB,96,EC,FF,
54241300,00000600,false,Rx,0,8,00,00,1E,FF,12,27,11,27,
54244347,00000200,false,Rx,0,8,02,00,00,80,AA,41,BE,81,
54245303,00000210,false,Rx,0,8,14,0A,00,80,00,44,9A,D5,
54246304,00000220,false,Rx,0,8,1D,01,00,80,01,41,FE,1E,
54250921,00000310,false,Rx,0,8,00,00,FC,FF,00,00,FF,FF,
54251310,00000600,false,Rx,0,8,00,00,1E,FF,11,27,12,27,
54254358,00000200,false,Rx,0,8,04,00,00,80,AA,51,BF,2B,
54255314,00000210,false,Rx,0,8,14,0A,00,80,00,54,9B,19,
54256315,00000220,false,Rx,0,8,62,01,00,80,01,51,F4,1D,
54258489,00000522,false,Rx,0,8,4B,92,FC,FF,49,92,E4,FF,
54259383,00000110,false,Rx,0,8,FF,7F,FE,7F,0D,2F,44,A2,
54260293,00000521,false,Rx,0,8,00,F0,FF,FF,CB,96,EC,FF,
54261313,00000600,false,Rx,0,8,00,00,1E,FF,12,27,11,27,
54264370,00000200,false,Rx,0,8,06,00,00,80,AA,61,BE,DD,
54265326,00000210,false,Rx,0,8,30,0A,00,80,00,64,9D,E9,
54266327,00000220,false,Rx,0,8,20,01,00,80,01,61,FB,2B,
54270934,00000310,false,Rx,0,8,00,00,FC,FF,00,00,FF,FF,
54271324,00000600,false,Rx,0,8,00,00,1E,FF,11,27,11,27,
54274371,00000200,false,Rx,0,8,08,00,00,80,7A,71,E3,FF,
54275337,00000210,false,Rx,0,8,2C,0A,00,80,00,74,9E,79,
54276328,00000220,false,Rx,0,8,33,01,00,80,01,71,F8,44,
54278502,00000522,false,Rx,0,8,4B,92,FC,FF,49,92,E4,FF,
54279396,00000110,false,Rx,0,8,FF,7F,FE,7F,0D,3F,45,6E,
54280306,00000521,false,Rx,0,8,00,F0,FF,FF,CB,96,EC,FF,
54281336,00000600,false,Rx,0,8,00,00,1E,FF,11,27,12,27,
54284385,00000200,false,Rx,0,8,FF,FF,FF,7F,AA,81,BF,0C,
54285331,00000210,false,Rx,0,8,33,0A,00,80,00,84,9C,52,
54286333,00000220,false,Rx,0,8,6D,01,00,80,01,81,F5,7E,
54290950,00000310,false,Rx,0,8,00,00,FC,FF,00,00,FF,FF,
54291338,00000600,false,Rx,0,8,00,00,1E,FF,11,27,12,27,
54294386,00000200,false,Rx,0,8,04,00,00,80,AA,91,BF,7B,
54295352,00000210,false,Rx,0,8,28,0A,00,80,00,94,9E,75,
54296345,00000220,false,Rx,0,8,3B,01,00,80,01,91,F8,84,
54298517,00000522,false,Rx,0,8,4B,92,FC,FF,49,92,E4,FF,
54299413,00000110,false,Rx,0,8,FF,7F,FE,7F,0D,4F,44,8A,
54300331,00000521,false,Rx,0,8,00,F0,FF,FF,CB,96,EC,FF,
54301361,00000600,false,Rx,0,8,00,00,1E,FF,11,27,11,27,
54304450,00000200,false,Rx,0,8,02,00,00,80,AA,A1,BF,09,
54305364,00000210,false,Rx,0,8,2C,0A,00,80,00,A4,9F,E5,
54306367,00000220,false,Rx,0,8,5A,01,00,80,01,A1,F0,E1,
54306605,00000511,false,Rx,0,8,40,00,00,F8,C9,B6,04,C9,
54308442,00000510,false,Rx,0,8,49,92,24,C9,49,92,FC,FF,
54309399,00000550,false,Rx,0,8,00,00,FF,FF,FF,FF,FF,FF,
54309637,00000525,false,Rx,0,8,00,00,00,C0,00,00,FC,FF,
54309876,00000526,false,Rx,0,8,00,00,FC,FF,00,F0,FF,FF,
54311362,00000600,false,Rx,0,8,00,00,1E,FF,11,27,12,27,
54311610,00000310,false,Rx,0,8,00,00,FC,FF,00,00,FF,FF,
54314403,00000200,false,Rx,0,8,06,00,00,80,A7,B1,BB,D1,
54315370,00000210,false,Rx,0,8,27,0A,00,80,00,B4,9F,52,
54316362,00000220,false,Rx,0,8,4F,01,00,80,01,B1,F3,E8,
54318535,00000522,false,Rx,0,8,4B,92,FC,FF,49,92,E4,FF,
54319430,00000110,false,Rx,0,8,FF,7F,FE,7F,0D,5F,45,46,
54320339,00000521,false,Rx,0,8,00,F0,FF,FF,CB,96,EC,FF,
54321369,00000600,false,Rx,0,8,00,00,1E,FF,11,27,11,27,
54324417,00000200,false,Rx,0,8,07,00,00,80,AA,C1,BF,74,
54325373,00000210,false,Rx,0,8,23,0A,00,80,00,C4,9F,32,
54326375,00000220,false,Rx,0,8,1D,01,00,80,01,C1,FF,BE,
54330981,00000310,false,Rx,0,8,00,00,FC,FF,00,00,FF,FF,
54331380,00000600,false,Rx,0,8,00,00,1E,FF,11,27,12,27,
54334417,00000200,false,Rx,0,8,00,00,00,80,AA,D1,BF,0F,
54335383,00000210,false,Rx,0,8,1D,0A,00,80,00,D4,9A,20,
54336375,00000220,false,Rx,0,8,5A,01,00,80,01,D1,F1,05,
54338549,00000522,false,Rx,0,8,4B,92,FC,FF,49,92,E4,FF,
54339443,00000110,false,Rx,0,8,FF,7F,FE,7F,0D,6F,45,52,
54340352,00000521,false,Rx,0,8,00,F0,FF,FF,CB,96,EC,FF,
54341382,00000600,false,Rx,0,8,00,00,1E,FF,11,27,11,27,
54344430,00000200,false,Rx,0,8,01,00,00,80,AA,E1,BE,CA,
54345385,00000210,false,Rx,0,8,37,0A,00,80,00,E4,9D,FE,
54346377,00000220,false,Rx,0,8,51,01,00,80,01,E1,F0,6A,
54350994,00000310,false,Rx,0,8,00,00,FC,FF,00,00,FF,FF,
54351382,00000600,false,Rx,0,8,00,00,1E,FF,11,27,11,27,
54354430,00000200,false,Rx,0,8,06,00,00,80,7A,01,E3,35,
54355396,00000210,false,Rx,0,8,27,0A,00,80,00,04,9E,E6,
54356388,00000220,false,Rx,0,8,44,01,00,80,01,01,F3,27,
54358562,00000522,false,Rx,0,8,4B,92,FC,FF,49,92,E4,FF,
54359456,00000110,false,Rx,0,8,FF,7F,FE,7F,0D,7F,44,9E,
54360365,00000521,false,Rx,0,8,00,F0,FF,FF,CB,96,EC,FF,
54361395,00000600,false,Rx,0,8,00,00,1E,FF,11,27,11,27,
54364442,00000200,false,Rx,0,8,00,00,00,80,AA,11,BF,5F,
54365398,00000210,false,Rx,0,8,21,0A,00,80,00,14,9F,4C,
54366390,00000220,false,Rx,0,8,65,01,00,80,01,11,F4,5A,
54371006,00000310,false,Rx,0,8,00,00,FC,FF,00,00,FF,FF,
54371405,00000600,false,Rx,0,8,00,00,1E,FF,11,27,12,27,
54374442,00000200,false,Rx,0,8,02,00,00,80,AA,21,BE,A9,
54375408,00000210,false,Rx,0,8,1B,0A,00,80,00,24,9A,02,
54376401,00000220,false,Rx,0,8,28,01,00,80,01,21,FB,93,
54378575,00000522,false,Rx,0,8,4B,92,FC,FF,49,92,E4,FF,
54379469,00000110,false,Rx,0,8,FF,7F,FE,7F,0D,8F,44,DA,
54380378,00000521,false,Rx,0,8,00,F0,FF,FF,CB,96,EC,FF,
54381408,00000600,false,Rx,0,8,00,00,1E,FF,11,27,11,27,
54384456,00000200,false,Rx,0,8,08,00,00,80,AA,31,BF,CF,
54385412,00000210,false,Rx,0,8,2A,0A,00,80,00,34,9F,EF,
54386413,00000220,false,Rx,0,8,3B,01,00,80,01,31,F8,FC,
54391020,00000310,false,Rx,0,8,00,00,FC,FF,00,00,FF,FF,
54391419,00000600,false,Rx,0,8,00,00,1E,FF,11,27,11,27,
54394458,00000200,false,Rx,0,8,0A,00,00,80,A7,41,BB,59,
54395415,00000210,false,Rx,0,8,1B,0A,00,80,00,44,9A,2A,
54396417,00000220,false,Rx,0,8,30,01,00,80,01,41,F8,63,
54398591,00000522,false,Rx,0,8,4B,92,FC,FF,49,92,E4,FF,
54399496,00000110,false,Rx,0,8,FF,7F,FE,7F,0D,9F,45,16,
54400404,00000521,false,Rx,0,8,00,F0,FF,FF,CB,96,EC,FF,
54401434,00000600,false,Rx,0,8,00,00,1E,FF,11,27,11,27,
54404473,00000200,false,Rx,0,8,06,00,00,80,AA,51,BE,C9,
54405430,00000210,false,Rx,0,8,21,0A,00,80,00,54,9E,BC,
54406421,00000220,false,Rx,0,8,44,01,00,80,01,51,F3,1B,
54411039,00000310,false,Rx,0,8,00,00,FC,FF,00,00,FF,FF,
54411438,00000600,false,Rx,0,8,00,00,1E,FF,11,27,12,27,
54414485,00000200,false,Rx,0,8,00,00,00,80,AA,61,BE,BB,
54415444,00000210,false,Rx,0,8,30,0A,00,80,00,64,9D,E9,
54416434,00000220,false,Rx,0,8,51,01,00,80,01,61,F1,CA,
54418608,00000522,false,Rx,0,8,4B,92,FC,FF,49,92,E4,FF,
54419513,00000110,false,Rx,0,8,FF,7F,FE,7F,0D,AF,45,02,
54420421,00000521,false,Rx,0,8,00,F0,FF,FF,CB,96,EC,FF,
54421440,00000600,false,Rx,0,8,00,00,1E,FF,11,27,11,27,
54424488,00000200,false,Rx,0,8,04,00,00,80,AA,71,BE,F3,
54425455,00000210,false,Rx,0,8,26,0A,00,80,00,74,9E,D3,
54426446,00000220,false,Rx,0,8,46,01,00,80,01,71,F3,21,
54431053,00000310,false,Rx,0,8,00,00,FC,FF,00,00,FF,FF,
54431451,00000600,false,Rx,0,8,00,00,1E,FF,11,27,12,27,
54434499,00000200,false,Rx,0,8,06,00,00,80,7A,81,E2,95,
54435466,00000210,false,Rx,0,8,21,0A,00,80,00,84,9F,20,
54436458,00000220,false,Rx,0,8,28,01,00,80,01,81,FB,EB,
54438622,00000522,false,Rx,0,8,4B,92,FC,FF,49,92,E4,FF,
54439526,00000110,false,Rx,0,8,FF,7F,FE,7F,0D,BF,44,CE,
54440424,00000521,false,Rx,0,8,00,F0,FF,FF,CB,96,EC,FF,
54441455,00000600,false,Rx,0,8,00,00,1E,FF,11,27,11,27,
54444494,00000200,false,Rx,0,8,09,00,00,80,AA,91,BE,66,
54445461,00000210,false,Rx,0,8,23,0A,00,80,00,94,9F,0E,
54446462,00000220,false,Rx,0,8,46,01,00,80,01,91,F2,A9,
54451070,00000310,false,Rx,0,8,00,00,FC,FF,00,00,FF,FF,
54451460,00000600,false,Rx,0,8,00,00,1E,FF,11,27,12,27,
54454506,00000200,false,Rx,0,8,03,00,00,80,AA,A1,BE,D8,
54455463,00000210,false,Rx,0,8,23,0A,00,80,00,A4,9F,1A,
54456464,00000220,false,Rx,0,8,3E,01,00,80,01,A1,F8,C5,
54458638,00000522,false,Rx,0,8,4B,92,FC,FF,49,92,E4,FF,
54459532,00000110,false,Rx,0,8,FF,7F,FE,7F,0D,CF,45,2A,
54460441,00000521,false,Rx,0,8,00,F0,FF,FF,CB,96,EC,FF,
54461472,00000600,false,Rx,0,8,00,00,1E,FF,11,27,11,27,
54464510,00000200,false,Rx,0,8,03,00,00,80,AA,B1,BF,14,
54465476,00000210,false,Rx,0,8,2E,0A,00,80,00,B4,9F,CB,
54466467,00000220,false,Rx,0,8,6D,01,00,80,01,B1,F5,6A,
54471076,00000310,false,Rx,0,8,00,00,FC,FF,00,00,FF,FF,
54471476,00000600,false,Rx,0,8,00,00,1E,FF,11,27,12,27,
54474524,00000200,false,Rx,0,8,01,00,00,80,A7,C1,BB,82,
54475479,00000210,false,Rx,0,8,31,0A,00,80,00,C4,9C,40,
54476480,00000220,false,Rx,0,8,15,01,00,80,01,C1,FE,F6,
54478654,00000522,false,Rx,0,8,4B,92,FC,FF,49,92,E4,FF,
54479548,00000110,false,Rx,0,8,FF,7F,FE,7F,0D,DF,44,E6,
54480458,00000521,false,Rx,0,8,00,F0,FF,FF,CB,96,EC,FF,
54481478,00000600,false,Rx,0,8,00,00,1E,FF,11,27,12,27,
54484526,00000200,false,Rx,0,8,04,00,00,80,AA,D1,BE,8B,
54485492,00000210,false,Rx,0,8,26,0A,00,80,00,D4,9E,AB,
54486483,00000220,false,Rx,0,8,28,01,00,80,01,D1,FB,D7,
54491091,00000310,false,Rx,0,8,00,00,FC,FF,00,00,FF,FF,
54491491,00000600,false,Rx,0,8,00,00,1E,FF,11,27,12,27,
54494528,00000200,false,Rx,0,8,04,00,00,80,AA,E1,BE,9F,
54495494,00000210,false,Rx,0,8,1D,0A,00,80,00,E4,9A,34,
54496495,00000220,false,Rx,0,8,65,01,00,80,01,E1,F4,1E,
54498659,00000522,false,Rx,0,8,4B,92,FC,FF,49,92,E4,FF,
54499564,00000110,false,Rx,0,8,FF,7F,FE,7F,0D,EF,44,F2,
54500482,00000521,false,Rx,0,8,00,F0,FF,FF,CB,96,EC,FF,
54501513,00000600,false,Rx,0,8,00,00,1E,FF,11,27,11,27,
54504561,00000200,false,Rx,0,8,02,00,00,80,AA,01,BF,71,
54505517,00000210,false,Rx,0,8,14,0A,00,80,00,04,9B,25,
54506518,00000220,false,Rx,0,8,33,01,00,80,01,01,F9,A0,
54506759,00000511,false,Rx,0,8,40,00,00,F8,C9,B6,04,C9,
54508594,00000510,false,Rx,0,8,49,92,24,C9,49,92,FC,FF,
54511107,00000310,false,Rx,0,8,00,00,FC,FF,00,00,FF,FF,
54511517,00000600,false,Rx,0,8,00,00,1E,FF,11,27,11,27,
54514554,00000200,false,Rx,0,8,01,00,00,80,7A,11,E3,4E,
54515521,00000210,false,Rx,0,8,1D,0A,00,80,00,14,9A,70,
54516511,00000220,false,Rx,0,8,33,01,00,80,01,11,F8,6C,
54518685,00000522,false,Rx,0,8,4B,92,FC,FF,49,92,E4,FF,
54519579,00000110,false,Rx,0,8,FF,7F,FE,7F,0D,0F,45,7A,
54520499,00000521,false,Rx,0,8,00,F0,FF,FF,CB,96,EC,FF,
54521520,00000600,false,Rx,0,8,00,00,1E,FF,12,27,11,27,
54524567,00000200,false,Rx,0,8,FF,FF,FF,7F,AA,21,BF,74,
54525523,00000210,false,Rx,0,8,19,0A,00,80,00,24,9B,E0,
54526524,00000220,false,Rx,0,8,12,01,00,80,01,21,FE,C9,
54531131,00000310,false,Rx,0,8,00,00,FC,FF,00,00,FF,FF,
54531520,00000600,false,Rx,0,8,00,00,1E,FF,11,27,13,27,
54534568,00000200,false,Rx,0,8,01,00,00,80,AA,31,BF,56,
54535534,00000210,false,Rx,0,8,1D,0A,00,80,00,34,9B,A8,
54536524,00000220,false,Rx,0,8,4F,01,00,80,01,31,F2,48,
54538698,00000522,false,Rx,0,8,4B,92,FC,FF,49,92,E4,FF,
54539593,00000110,false,Rx,0,8,FF,7F,FE,7F,0D,1F,44,B6,
54540501,00000521,false,Rx,0,8,00,F0,FF,FF,CB,96,EC,FF,
54541522,00000600,false,Rx,0,8,00,00,1E,FF,11,27,11,27,
54544580,00000200,false,Rx,0,8,05,00,00,80,AA,41,BF,36,
54545535,00000210,false,Rx,0,8,35,0A,00,80,00,44,9C,64,
54546526,00000220,false,Rx,0,8,44,01,00,80,01,41,F2,D7,
54551143,00000310,false,Rx,0,8,00,00,FC,FF,00,00,FF,FF,
54551533,00000600,false,Rx,0,8,00,00,1E,FF,10,27,11,27,
54554581,00000200,false,Rx,0,8,FF,FF,FF,7F,A7,51,BA,00,
54555547,00000210,false,Rx,0,8,1F,0A,00,80,00,54,9A,62,
54556538,00000220,false,Rx,0,8,28,01,00,80,01,51,FA,77,
54558712,00000522,false,Rx,0,8,4B,92,FC,FF,49,92,E4,FF,
54559606,00000110,false,Rx,0,8,FF,7F,FE,7F,0D,2F,44,A2,
54560526,00000521,false,Rx,0,8,00,F0,FF,FF,CB,96,EC,FF,
54561545,00000600,false,Rx,0,8,00,00,1E,FF,11,27,11,27,
54564593,00000200,false,Rx,0,8,03,00,00,80,AA,61,BE,88,
54565548,00000210,false,Rx,0,8,26,0A,00,80,00,64,9F,1F,
54566540,00000220,false,Rx,0,8,0A,01,00,80,01,61,FC,E1,
54571158,00000310,false,Rx,0,8,00,00,FC,FF,00,00,FF,FF,
54571547,00000600,false,Rx,0,8,00,00,1E,FF,11,27,12,27,
54574596,00000200,false,Rx,0,8,07,00,00,80,AA,71,BE,C0,
54575562,00000210,false,Rx,0,8,27,0A,00,80,00,74,9F,02,
54576553,00000220,false,Rx,0,8,51,01,00,80,01,71,F0,06,
54578727,00000522,false,Rx,0,8,4B,92,FC,FF,49,92,E4,FF,
54579621,00000110,false,Rx,0,8,FF,7F,FE,7F,0D,3F,45,6E,
54580530,00000521,false,Rx,0,8,00,F0,FF,FF,CB,96,EC,FF,
54581560,00000600,false,Rx,0,8,00,00,1E,FF,11,27,11,27,
54584608,00000200,false,Rx,0,8,01,00,00,80,AA,81,BE,E2,
54585564,00000210,false,Rx,0,8,26,0A,00,80,00,84,9E,97,
54586565,00000220,false,Rx,0,8,28,01,00,80,01,81,FB,EB,
54591173,00000310,false,Rx,0,8,00,00,FC,FF,00,00,FF,FF,
54591563,00000600,false,Rx,0,8,00,00,1E,FF,11,27,11,27,
54594610,00000200,false,Rx,0,8,02,00,00,80,7A,91,E2,DD,
54595576,00000210,false,Rx,0,8,25,0A,00,80,00,94,9F,68,
54596567,00000220,false,Rx,0,8,3B,01,00,80,01,91,F8,84,
54598743,00000522,false,Rx,0,8,4B,92,FC,FF,49,92,E4,FF,
54599646,00000110,false,Rx,0,8,FF,7F,FE,7F,0D,4F,44,8A,
54600556,00000521,false,Rx,0,8,00,F0,FF,FF,CB,96,EC,FF,
54601586,00000600,false,Rx,0,8,00,00,1E,FF,11,27,11,27,
54604624,00000200,false,Rx,0,8,09,00,00,80,AA,A1,BE,72,
54605590,00000210,false,Rx,0,8,23,0A,00,80,00,A4,9F,1A,
54606582,00000220,false,Rx,0,8,44,01,00,80,01,A1,F3,5F,
54611188,00000310,false,Rx,0,8,00,00,FC,FF,00,00,FF,FF,
54611587,00000600,false,Rx,0,8,00,00,1E,FF,11,27,12,27,
54614634,00000200,false,Rx,0,8,08,00,00,80,AA,B1,BE,6F,
54615600,00000210,false,Rx,0,8,24,0A,00,80,00,B4,9F,61,
54616593,00000220,false,Rx,0,8,33,01,00,80,01,B1,F8,14,
54618767,00000522,false,Rx,0,8,4B,92,FC,FF,49,92,E4,FF,
54619661,00000110,false,Rx,0,8,FF,7F,FE,7F,0D,5F,45,46,
54620569,00000521,false,Rx,0,8,00,F0,FF,FF,CB,96,EC,FF,
54621599,00000600,false,Rx,0,8,00,00,1E,FF,11,27,11,27,
54624648,00000200,false,Rx,0,8,01,00,00,80,AA,C1,BF,12,
54625604,00000210,false,Rx,0,8,21,0A,00,80,00,C4,9E,D0,
54626595,00000220,false,Rx,0,8,0A,01,00,80,01,C1,FC,99,
54631202,00000310,false,Rx,0,8,00,00,FC,FF,00,00,FF,FF,
54631601,00000600,false,Rx,0,8,00,00,1E,FF,11,27,11,27,
54634648,00000200,false,Rx,0,8,01,00,00,80,A7,D1,BA,4E,
54635615,00000210,false,Rx,0,8,2E,0A,00,80,00,D4,9F,E3,
54636608,00000220,false,Rx,0,8,28,01,00,80,01,D1,FB,D7,
54638773,00000522,false,Rx,0,8,4B,92,FC,FF,49,92,E4,FF,
54639667,00000110,false,Rx,0,8,FF,7F,FE,7F,0D,6F,45,52,
54640575,00000521,false,Rx,0,8,00,F0,FF,FF,CB,96,EC,FF,
54641605,00000600,false,Rx,0,8,00,00,1E,FF,11,27,11,27,
54644653,00000200,false,Rx,0,8,06,00,00,80,AA,E1,BF,7D,
54645609,00000210,false,Rx,0,8,2A,0A,00,80,00,E4,9E,73,
54646611,00000220,false,Rx,0,8,28,01,00,80,01,E1,FB,C3,
54651218,00000310,false,Rx,0,8,00,00,FC,FF,00,00,FF,FF,
54651607,00000600,false,Rx,0,8,00,00,1E,FF,11,27,12,27,
54654654,00000200,false,Rx,0,8,04,00,00,80,AA,01,BF,17,
54655620,00000210,false,Rx,0,8,23,0A,00,80,00,04,9F,62,
54656612,00000220,false,Rx,0,8,4F,01,00,80,01,01,F2,5C,
54658786,00000522,false,Rx,0,8,4B,92,FC,FF,49,92,E4,FF,
54659680,00000110,false,Rx,0,8,FF,7F,FE,7F,0D,7F,44,9E,
54660589,00000521,false,Rx,0,8,00,F0,FF,FF,CB,96,EC,FF,
54661619,00000600,false,Rx,0,8,00,00,1E,FF,11,27,11,27,
54664666,00000200,false,Rx,0,8,04,00,00,80,AA,11,BE,DB,
54665623,00000210,false,Rx,0,8,21,0A,00,80,00,14,9F,4C,
54666614,00000220,false,Rx,0,8,62,01,00,80,01,11,F5,ED,
54671231,00000310,false,Rx,0,8,00,00,FC,FF,00,00,FF,FF,
54671630,00000600,false,Rx,0,8,00,00,1E,FF,11,27,11,27,
54674668,00000200,false,Rx,0,8,04,00,00,80,7A,21,E3,0F,
54675634,00000210,false,Rx,0,8,23,0A,00,80,00,24,9E,BA,
54676626,00000220,false,Rx,0,8,46,01,00,80,01,21,F3,1D,
54678801,00000522,false,Rx,0,8,4B,92,FC,FF,49,92,E4,FF,
54679694,00000110,false,Rx,0,8,FF,7F,FE,7F,0D,8F,44,DA,
54680602,00000521,false,Rx,0,8,00,F0,FF,FF,CB,96,EC,FF,
54681632,00000600,false,Rx,0,8,00,00,1E,FF,11,27,11,27,
54684680,00000200,false,Rx,0,8,07,00,00,80,AA,31,BF,30,
54685636,00000210,false,Rx,0,8,21,0A,00,80,00,34,9E,94,
54686638,00000220,false,Rx,0,8,1D,01,00,80,01,31,FF,FA,
54691246,00000310,false,Rx,0,8,00,00,FC,FF,00,00,FF,FF,
54691635,00000600,false,Rx,0,8,00,00,1E,FF,11,27,12,27,
54694682,00000200,false,Rx,0,8,06,00,00,80,AA,41,BF,05,
54695648,00000210,false,Rx,0,8,1F,0A,00,80,00,44,9B,AE,
54696640,00000220,false,Rx,0,8,65,01,00,80,01,41,F4,66,
54698816,00000522,false,Rx,0,8,4B,92,FC,FF,49,92,E4,FF,
54699719,00000110,false,Rx,0,8,FF,7F,FE,7F,0D,9F,45,16,
54700627,00000521,false,Rx,0,8,00,F0,FF,FF,CB,96,EC,FF,
54701657,00000600,false,Rx,0,8,00,00,1E,FF,11,27,12,27,
54704705,00000200,false,Rx,0,8,05,00,00,80,AA,51,BE,FA,
54705652,00000210,false,Rx,0,8,27,0A,00,80,00,54,9E,DA,
54706663,00000220,false,Rx,0,8,28,01,00,80,01,51,FA,77,
54706902,00000511,false,Rx,0,8,40,00,00,F8,C9,B6,04,C9,
54707707,00000420,false,Rx,0,8,00,00,00,00,42,00,00,FF,
54708740,00000510,false,Rx,0,8,49,92,24,C9,49,92,FC,FF,
54711264,00000310,false,Rx,0,8,00,00,FC,FF,00,00,FF,FF,
54711663,00000600,false,Rx,0,8,00,00,1E,FF,10,27,12,27,
54714753,00000200,false,Rx,0,8,01,00,00,80,A7,61,BB,FA,
54715668,00000210,false,Rx,0,8,1F,0A,00,80,00,64,9A,76,
54716658,00000220,false,Rx,0,8,4F,01,00,80,01,61,F2,74,
54718834,00000522,false,Rx,0,8,4B,92,FC,FF,49,92,E4,FF,
54719738,00000110,false,Rx,0,8,FF,7F,FE,7F,0D,AF,45,02,
54720646,00000521,false,Rx,0,8,00,F0,FF,FF,CB,96,EC,FF,
54721676,00000600,false,Rx,0,8,00,00,1E,FF,11,27,11,27,
54724713,00000200,false,Rx,0,8,07,00,00,80,AA,71,BE,C0,
54725670,00000210,false,Rx,0,8,2E,0A,00,80,00,74,9F,9B,
54726671,00000220,false,Rx,0,8,28,01,00,80,01,71,FB,AF,
54731277,00000310,false,Rx,0,8,00,00,FC,FF,00,00,FF,FF,
54731676,00000600,false,Rx,0,8,00,00,1E,FF,11,27,11,27,
54734724,00000200,false,Rx,0,8,04,00,00,80,AA,81,BE,B7,
54735692,00000210,false,Rx,0,8,24,0A,00,80,00,84,9F,75,
54736682,00000220,false,Rx,0,8,51,01,00,80,01,81,F0,42,
54738858,00000522,false,Rx,0,8,4B,92,FC,FF,49,92,E4,FF,
54739752,00000110,false,Rx,0,8,FF,7F,FE,7F,0D,BF,44,CE,
54740649,00000521,false,Rx,0,8,00,F0,FF,FF,CB,96,EC,FF,
54741678,00000600,false,Rx,0,8,00,00,1E,FF,11,27,12,27,
54744726,00000200,false,Rx,0,8,03,00,00,80,AA,91,BE,CC,
54745683,00000210,false,Rx,0,8,1D,0A,00,80,00,94,9B,D0,
54746674,00000220,false,Rx,0,8,3B,01,00,80,01,91,F8,84,
54751292,00000310,false,Rx,0,8,00,00,FC,FF,00,00,FF,FF,
54751680,00000600,false,Rx,0,8,00,00,1E,FF,12,27,11,27,
54754727,00000200,false,Rx,0,8,08,00,00,80,7A,A1,E2,63,
54755695,00000210,false,Rx,0,8,1D,0A,00,80,00,A4,9B,C4,
54756686,00000220,false,Rx,0,8,62,01,00,80,01,A1,F4,59,
54758861,00000522,false,Rx,0,8,4B,92,FC,FF,49,92,E4,FF,
54759755,00000110,false,Rx,0,8,FF,7F,FE,7F,0D,CF,45,2A,
54760673,00000521,false,Rx,0,8,00,F0,FF,FF,CB,96,EC,FF,
54761692,00000600,false,Rx,0,8,00,00,1E,FF,11,27,11,27,
54764740,00000200,false,Rx,0,8,03,00,00,80,AA,B1,BF,14,
54765697,00000210,false,Rx,0,8,23,0A,00,80,00,B4,9E,D6,
54766688,00000220,false,Rx,0,8,46,01,00,80,01,B1,F3,71,
54771306,00000310,false,Rx,0,8,00,00,FC,FF,00,00,FF,FF,
54771706,00000600,false,Rx,0,8,00,00,1E,FF,11,27,12,27,
54774744,00000200,false,Rx,0,8,09,00,00,80,AA,C1,BE,5A,
54775710,00000210,false,Rx,0,8,23,0A,00,80,00,C4,9F,32,
54776700,00000220,false,Rx,0,8,5A,01,00,80,01,C1,F0,C9,
54778876,00000522,false,Rx,0,8,4B,92,FC,FF,49,92,E4,FF,
54779770,00000110,false,Rx,0,8,FF,7F,FE,7F,0D,DF,44,E6,
54780687,00000521,false,Rx,0,8,00,F0,FF,FF,CB,96,EC,FF,
54781708,00000600,false,Rx,0,8,00,00,1E,FF,11,27,11,27,
54784757,00000200,false,Rx,0,8,06,00,00,80,AA,D1,BF,69,
54785711,00000210,false,Rx,0,8,21,0A,00,80,00,D4,9F,1C,
54786712,00000220,false,Rx,0,8,44,01,00,80,01,D1,F2,BB,
54791319,00000310,false,Rx,0,8,00,00,FC,FF,00,00,FF,FF,
54791719,00000600,false,Rx,0,8,00,00,1E,FF,11,27,11,27,
54794757,00000200,false,Rx,0,8,04,00,00,80,A7,E1,BA,0F,
54795722,00000210,false,Rx,0,8,31,0A,00,80,00,E4,9D,98,
54796713,00000220,false,Rx,0,8,4F,01,00,80,01,E1,F3,D4,
54798888,00000522,false,Rx,0,8,4B,92,FC,FF,49,92,E4,FF,
54799793,00000110,false,Rx,0,8,FF,7F,FE,7F,0D,EF,44,F2,
54800711,00000521,false,Rx,0,8,00,F0,FF,FF,CB,96,EC,FF,
54801732,00000600,false,Rx,0,8,00,00,1E,FF,11,27,11,27,
54804781,00000200,false,Rx,0,8,00,00,00,80,AA,01,BE,93,
54805747,00000210,false,Rx,0,8,1F,0A,00,80,00,04,9A,5E,
54806736,00000220,false,Rx,0,8,28,01,00,80,01,01,FA,4B,
54811333,00000310,false,Rx,0,8,00,00,FC,FF,00,00,FF,FF,
54811744,00000600,false,Rx,0,8,00,00,1E,FF,11,27,12,27,
54814782,00000200,false,Rx,0,8,05,00,00,80,AA,11,BF,0A,
54815748,00000210,false,Rx,0,8,2E,0A,00,80,00,14,9F,B3,
54816737,00000220,false,Rx,0,8,20,01,00,80,01,11,FA,CF,
54818913,00000522,false,Rx,0,8,4B,92,FC,FF,49,92,E4,FF,
54819807,00000110,false,Rx,0,8,FF,7F,FE,7F,0D,0F,45,7A,
54820724,00000521,false,Rx,0,8,00,F0,FF,FF,CB,96,EC,FF,
54821746,00000600,false,Rx,0,8,00,00,1E,FF,11,27,11,27,
54824784,00000200,false,Rx,0,8,02,00,00,80,AA,21,BE,A9,
54825750,00000210,false,Rx,0,8,26,0A,00,80,00,24,9E,EF,
54826739,00000220,false,Rx,0,8,46,01,00,80,01,21,F3,1D,
54831346,00000310,false,Rx,0,8,00,00,FC,FF,00,00,FF,FF,
54831747,00000600,false,Rx,0,8,00,00,1E,FF,11,27,11,27,
54834795,00000200,false,Rx,0,8,04,00,00,80,7A,31,E2,C3,
54835760,00000210,false,Rx,0,8,10,0A,00,80,00,34,9A,B5,
54836751,00000220,false,Rx,0,8,57,01,00,80,01,31,F1,90,
54838925,00000522,false,Rx,0,8,4B,92,FC,FF,49,92,E4,FF,
54839819,00000110,false,Rx,0,8,FF,7F,FE,7F,0D,1F,44,B6,
54840727,00000521,false,Rx,0,8,00,F0,FF,FF,CB,96,EC,FF,
54841749,00000600,false,Rx,0,8,00,00,1E,FF,11,27,11,27,
54844796,00000200,false,Rx,0,8,08,00,00,80,AA,41,BE,2B,
54845762,00000210,false,Rx,0,8,1F,0A,00,80,00,44,9B,AE,
54846753,00000220,false,Rx,0,8,46,01,00,80,01,41,F3,35,
54851369,00000310,false,Rx,0,8,00,00,FC,FF,00,00,FF,FF,
54851759,00000600,false,Rx,0,8,00,00,1E,FF,11,27,12,27,
54854807,00000200,false,Rx,0,8,FF,FF,FF,7F,AA,51,BE,90,
54855763,00000210,false,Rx,0,8,0D,0A,00,80,00,54,99,10,
54856763,00000220,false,Rx,0,8,3B,01,00,80,01,51,F8,D4,
54858938,00000522,false,Rx,0,8,4B,92,FC,FF,49,92,E4,FF,
54859821,00000110,false,Rx,0,8,FF,7F,FE,7F,0D,2F,44,A2,
54860739,00000521,false,Rx,0,8,00,F0,FF,FF,CB,96,EC,FF,
54861771,00000600,false,Rx,0,8,00,00,1E,FF,11,27,11,27,
54864809,00000200,false,Rx,0,8,08,00,00,80,AA,61,BF,F3,
54865775,00000210,false,Rx,0,8,28,0A,00,80,00,64,9E,31,
54866766,00000220,false,Rx,0,8,3B,01,00,80,01,61,F8,C0,
54871381,00000310,false,Rx,0,8,00,00,FC,FF,00,00,FF,FF,
54871773,00000600,false,Rx,0,8,00,00,1E,FF,11,27,12,27,
54874821,00000200,false,Rx,0,8,03,00,00,80,A7,71,BB,D4,
54875787,00000210,false,Rx,0,8,2A,0A,00,80,00,74,9E,1F,
54876778,00000220,false,Rx,0,8,28,01,00,80,01,71,FB,AF,
54878942,00000522,false,Rx,0,8,4B,92,FC,FF,49,92,E4,FF,
54879847,00000110,false,Rx,0,8,FF,7F,FE,7F,0D,3F,45,6E,
54880756,00000521,false,Rx,0,8,00,F0,FF,FF,CB,96,EC,FF,
54881786,00000600,false,Rx,0,8,00,00,1E,FF,11,27,11,27,
54884835,00000200,false,Rx,0,8,00,00,00,80,AA,81,BF,33,
54885790,00000210,false,Rx,0,8,14,0A,00,80,00,84,9A,85,
54886781,00000220,false,Rx,0,8,3B,01,00,80,01,81,F9,48,
54891397,00000310,false,Rx,0,8,00,00,FC,FF,00,00,FF,FF,
54891789,00000600,false,Rx,0,8,00,00,1E,FF,11,27,12,27,
54894836,00000200,false,Rx,0,8,07,00,00,80,AA,91,BF,48,
54895792,00000210,false,Rx,0,8,2E,0A,00,80,00,94,9E,13,
54896793,00000220,false,Rx,0,8,30,01,00,80,01,91,F9,FF,
54898968,00000522,false,Rx,0,8,4B,92,FC,FF,49,92,E4,FF,
54899862,00000110,false,Rx,0,8,FF,7F,FE,7F,0D,4F,44,8A,
54900782,00000521,false,Rx,0,8,00,F0,FF,FF,CB,96,EC,FF,
54901801,00000600,false,Rx,0,8,00,00,1E,FF,11,27,11,27,
54904850,00000200,false,Rx,0,8,05,00,00,80,AA,A1,BE,BE,
54905817,00000210,false,Rx,0,8,23,0A,00,80,00,A4,9F,1A,
54906344,00000410,false,Rx,0,8,C4,FF,FF,F8,FF,FF,FF,FF,
54906819,00000220,false,Rx,0,8,28,01,00,80,01,A1,FA,33,
54907059,00000511,false,Rx,0,8,40,00,00,F8,C9,B6,04,C9,
54907867,00000230,false,Rx,0,8,4A,00,11,4C,47,11,39,66,
54908899,00000510,false,Rx,0,8,49,92,24,C9,49,92,FC,FF,
54911412,00000310,false,Rx,0,8,00,00,FC,FF,00,00,FF,FF,
54911804,00000600,false,Rx,0,8,00,00,1E,FF,11,27,13,27,
54914851,00000200,false,Rx,0,8,0B,00,00,80,7A,B1,E3,9C,
54915817,00000210,false,Rx,0,8,21,0A,00,80,00,B4,9F,34,
54916819,00000220,false,Rx,0,8,1D,01,00,80,01,B1,FE,5A,
54918984,00000522,false,Rx,0,8,4B,92,FC,FF,49,92,E4,FF,
54919930,00000110,false,Rx,0,8,FF,7F,FE,7F,0D,5F,45,46,
54920798,00000521,false,Rx,0,8,00,F0,FF,FF,CB,96,EC,FF,
54921817,00000600,false,Rx,0,8,00,00,1E,FF,11,27,11,27,
54924865,00000200,false,Rx,0,8,07,00,00,80,AA,C1,BF,74,
54925821,00000210,false,Rx,0,8,14,0A,00,80,00,C4,9B,75,
54926854,00000220,false,Rx,0,8,3B,01,00,80,01,C1,F8,B8,
54931426,00000310,false,Rx,0,8,00,00,FC,FF,00,00,FF,FF,
54931828,00000600,false,Rx,0,8,00,00,1E,FF,11,27,12,27,
54934865,00000200,false,Rx,0,8,05,00,00,80,AA,D1,BF,5A,
54935831,00000210,false,Rx,0,8,23,0A,00,80,00,D4,9E,FE,
54936823,00000220,false,Rx,0,8,46,01,00,80,01,D1,F3,59,
54938996,00000522,false,Rx,0,8,4B,92,FC,FF,49,92,E4,FF,
54939892,00000110,false,Rx,0,8,FF,7F,FE,7F,0D,6F,45,52,
54940801,00000521,false,Rx,0,8,00,F0,FF,FF,CB,96,EC,FF,
54941820,00000600,false,Rx,0,8,00,00,1E,FF,11,27,11,27,
54944878,00000200,false,Rx,0,8,04,00,00,80,AA,E1,BE,9F,
54945834,00000210,false,Rx,0,8,1D,0A,00,80,00,E4,9A,34,
54946826,00000220,false,Rx,0,8,4F,01,00,80,01,E1,F3,D4,
54951442,00000310,false,Rx,0,8,00,00,FC,FF,00,00,FF,FF,
54951842,00000600,false,Rx,0,8,00,00,1E,FF,10,27,11,27,
54952080,000005F1,false,Rx,0,8,55,28,28,FF,FF,FF,FF,FF,
54954873,00000200,false,Rx,0,8,FF,FF,FF,7F,A7,01,BA,3C,
54955839,00000210,false,Rx,0,8,18,0A,00,80,00,04,9B,E9,
54956841,00000220,false,Rx,0,8,20,01,00,80,01,01,FB,03,
54959004,00000522,false,Rx,0,8,4B,92,FC,FF,49,92,E4,FF,
54959910,00000110,false,Rx,0,8,FF,7F,FE,7F,0D,7F,44,9E,
54960818,00000521,false,Rx,0,8,00,F0,FF,FF,CB,96,EC,FF,
54961838,00000600,false,Rx,0,8,00,00,1E,FF,11,27,11,27,
54964885,00000200,false,Rx,0,8,04,00,00,80,AA,11,BE,DB,
54965851,00000210,false,Rx,0,8,2A,0A,00,80,00,14,9E,37,
54966843,00000220,false,Rx,0,8,3B,01,00,80,01,11,F9,24,
54971459,00000310,false,Rx,0,8,00,00,FC,FF,00,00,FF,FF,
54971848,00000600,false,Rx,0,8,00,00,1E,FF,11,27,12,27,
54974897,00000200,false,Rx,0,8,08,00,00,80,AA,21,BE,03,
54975853,00000210,false,Rx,0,8,23,0A,00,80,00,24,9E,BA,
54976856,00000220,false,Rx,0,8,1D,01,00,80,01,21,FE,36,
54979019,00000522,false,Rx,0,8,4B,92,FC,FF,49,92,E4,FF,
54979915,00000110,false,Rx,0,8,FF,7F,FE,7F,0D,8F,44,DA,
54980834,00000521,false,Rx,0,8,00,F0,FF,FF,CB,96,EC,FF,
54981855,00000600,false,Rx,0,8,00,00,1E,FF,12,27,11,27,
54984904,00000200,false,Rx,0,8,FF,FF,FF,7F,AA,31,BE,B8,
54985871,00000210,false,Rx,0,8,2C,0A,00,80,00,34,9F,89,
54986863,00000220,false,Rx,0,8,3B,01,00,80,01,31,F8,FC,
54991468,00000310,false,Rx,0,8,00,00,FC,FF,00,00,FF,FF,
54991868,00000600,false,Rx,0,8,00,00,1E,FF,11,27,11,27,
54994906,00000200,false,Rx,0,8,07,00,00,80,7A,41,E3,14,
54995872,00000210,false,Rx,0,8,1F,0A,00,80,00,44,9B,AE,
54996865,00000220,false,Rx,0,8,44,01,00,80,01,41,F2,D7,
54999041,00000522,false,Rx,0,8,4B,92,FC,FF,49,92,E4,FF,
54999945,00000110,false,Rx,0,8,FF,7F,FE,7F,0D,9F,45,16,
55000854,00000521,false,Rx,0,8,00,F0,FF,FF,CB,96,EC,FF,
55001884,00000600,false,Rx,0,8,00,00,1E,FF,11,27,11,27,
55002123,00000320,false,Rx,0,8,8E,06,00,FF,00,00,A7,00,
55004927,00000200,false,Rx,0,8,02,00,00,80,AA,51,BF,4D,
55005893,00000210,false,Rx,0,8,23,0A,00,80,00,54,9F,5E,
55006886,00000220,false,Rx,0,8,3B,01,00,80,01,51,F8,D4,
55011481,00000310,false,Rx,0,8,00,00,FC,FF,00,00,FF,FF,
55011891,00000600,false,Rx,0,8,00,00,1E,FF,11,27,12,27,
55014928,00000200,false,Rx,0,8,06,00,00,80,AA,61,BE,DD,
55015894,00000210,false,Rx,0,8,2C,0A,00,80,00,64,9F,B5,
55016896,00000220,false,Rx,0,8,25,01,00,80,01,61,FB,7E,
55019062,00000522,false,Rx,0,8,4B,92,FC,FF,49,92,E4,FF,
55019956,00000110,false,Rx,0,8,FF,7F,FE,7F,0D,AF,45,02,
55020875,00000521,false,Rx,0,8,00,F0,FF,FF,CB,96,EC,FF,
55021885,00000600,false,Rx,0,8,00,00,1D,FF,11,27,11,27,
55024943,00000200,false,Rx,0,8,06,00,00,80,AA,71,BF,11,
55025910,00000210,false,Rx,0,8,28,0A,00,80,00,74,9F,FD,
55026891,00000220,false,Rx,0,8,5A,01,00,80,01,71,F1,7D,
55031498,00000310,false,Rx,0,8,00,00,FC,FF,00,00,FF,FF,
55031898,00000600,false,Rx,0,8,00,00,1E,FF,11,27,11,27,
55034947,00000200,false,Rx,0,8,01,00,00,80,A7,81,BA,72,
55035914,00000210,false,Rx,0,8,2A,0A,00,80,00,84,9E,5B,
55036905,00000220,false,Rx,0,8,46,01,00,80,01,81,F3,65,
55039079,00000522,false,Rx,0,8,4B,92,FC,FF,49,92,E4,FF,
55039973,00000110,false,Rx,0,8,FF,7F,FE,7F,0D,BF,44,CE,
55040871,00000521,false,Rx,0,8,00,F0,FF,FF,CB,96,EC,FF,
55041901,00000600,false,Rx,0,8,00,00,1E,FF,12,27,11,27,
55044949,00000200,false,Rx,0,8,FF,FF,FF,7F,AA,91,BE,C0,
55045906,00000210,false,Rx,0,8,31,0A,00,80,00,94,9C,7C,
55046907,00000220,false,Rx,0,8,20,01,00,80,01,91,FB,6F,
55051512,00000310,false,Rx,0,8,00,00,FC,FF,00,00,FF,FF,
55051912,00000600,false,Rx,0,8,00,00,1E,FF,11,27,12,27,
55054949,00000200,false,Rx,0,8,03,00,00,80,AA,A1,BE,D8,
55055916,00000210,false,Rx,0,8,33,0A,00,80,00,A4,9D,8A,
55056917,00000220,false,Rx,0,8,46,01,00,80,01,A1,F2,BD,
55059081,00000522,false,Rx,0,8,4B,92,FC,FF,49,92,E4,FF,
55059975,00000110,false,Rx,0,8,FF,7F,FE,7F,0D,CF,45,2A,
55060894,00000521,false,Rx,0,8,00,F0,FF,FF,CB,96,EC,FF,
55061914,00000600,false,Rx,0,8,00,00,1E,FF,11,27,11,27,
55064963,00000200,false,Rx,0,8,04,00,00,80,AA,B1,BE,A3,
55065920,00000210,false,Rx,0,8,2E,0A,00,80,00,B4,9F,CB,
55066922,00000220,false,Rx,0,8,28,01,00,80,01,B1,FB,FF,
55071527,00000310,false,Rx,0,8,00,00,FC,FF,00,00,FF,FF,
55071927,00000600,false,Rx,0,8,00,00,1E,FF,11,27,11,27,
55074974,00000200,false,Rx,0,8,05,00,00,80,7A,C1,E3,56,
55075931,00000210,false,Rx,0,8,21,0A,00,80,00,C4,9E,D0,
55076932,00000220,false,Rx,0,8,30,01,00,80,01,C1,F9,C3,
55079096,00000522,false,Rx,0,8,4B,92,FC,FF,49,92,E4,FF,
55079990,00000110,false,Rx,0,8,FF,7F,FE,7F,0D,DF,44,E6,
55080909,00000521,false,Rx,0,8,00,F0,FF,FF,CB,96,EC,FF,
55081939,00000600,false,Rx,0,8,00,00,1E,FF,11,27,11,27,
55084976,00000200,false,Rx,0,8,04,00,00,80,AA,D1,BE,8B,
55085933,00000210,false,Rx,0,8,1D,0A,00,80,00,D4,9A,20,
55086934,00000220,false,Rx,0,8,30,01,00,80,01,D1,F8,0F,
55091550,00000310,false,Rx,0,8,00,00,FC,FF,00,00,FF,FF,
55091939,00000600,false,Rx,0,8,00,00,1E,FF,11,27,13,27,
55094988,00000200,false,Rx,0,8,08,00,00,80,AA,E1,BE,53,
55095945,00000210,false,Rx,0,8,2E,0A,00,80,00,E4,9F,F7,
55096946,00000220,false,Rx,0,8,33,01,00,80,01,E1,F8,28,
55099110,00000522,false,Rx,0,8,4B,92,FC,FF,49,92,E4,FF,
55100014,00000110,false,Rx,0,8,FF,7F,FE,7F,0D,EF,44,F2,
55100933,00000521,false,Rx,0,8,00,F0,FF,FF,CB,96,EC,FF,
55101954,00000600,false,Rx,0,8,00,00,1E,FF,11,27,11,27,
55102192,00000321,false,Rx,0,8,8E,06,00,FF,00,00,A7,00,
55105004,00000200,false,Rx,0,8,03,00,00,80,AA,01,BE,A0,
55105961,00000210,false,Rx,0,8,1A,0A,00,80,00,04,9A,0B,
55106962,00000220,false,Rx,0,8,28,01,00,80,01,01,FA,4B,
55107200,00000511,false,Rx,0,8,40,00,00,F8,C9,B6,04,C9,
55109037,00000510,false,Rx,0,8,49,92,24,C9,49,92,FC,FF,
55111558,00000310,false,Rx,0,8,00,00,FC,FF,00,00,FF,FF,
55111959,00000600,false,Rx,0,8,00,00,1E,FF,11,27,11,27,
55115007,00000200,false,Rx,0,8,02,00,00,80,A7,11,BA,2D,
55115963,00000210,false,Rx,0,8,14,0A,00,80,00,14,9A,E9,
55116964,00000220,false,Rx,0,8,2B,01,00,80,01,11,FB,B4,
55119129,00000522,false,Rx,0,8,4B,92,FC,FF,49,92,E4,FF,
55120033,00000110,false,Rx,0,8,FF,7F,FE,7F,0D,0F,45,7A,
55120942,00000521,false,Rx,0,8,00,F0,FF,FF,CB,96,EC,FF,
55121973,00000600,false,Rx,0,8,00,00,1E,FF,11,27,12,27,
55125062,00000200,false,Rx,0,8,09,00,00,80,AA,21,BF,D2,
55125976,00000210,false,Rx,0,8,1B,0A,00,80,00,24,9A,02,
55126968,00000220,false,Rx,0,8,46,01,00,80,01,21,F3,1D,
55131573,00000310,false,Rx,0,8,00,00,FC,FF,00,00,FF,FF,
55131974,00000600,false,Rx,0,8,00,00,1E,FF,11,27,12,27,
55135021,00000200,false,Rx,0,8,01,00,00,80,AA,31,BF,56,
55135987,00000210,false,Rx,0,8,1F,0A,00,80,00,34,9A,4A,
55136988,00000220,false,Rx,0,8,28,01,00,80,01,31,FA,5F,
55139152,00000522,false,Rx,0,8,4B,92,FC,FF,49,92,E4,FF,
55140046,00000110,false,Rx,0,8,FF,7F,FE,7F,0D,1F,44,B6,
55140955,00000521,false,Rx,0,8,00,F0,FF,FF,CB,96,EC,FF,
55141976,00000600,false,Rx,0,8,00,00,1E,FF,11,27,11,27,
55145023,00000200,false,Rx,0,8,05,00,00,80,AA,41,BF,36,
55145979,00000210,false,Rx,0,8,16,0A,00,80,00,44,9B,37,
55146969,00000220,false,Rx,0,8,4F,01,00,80,01,41,F3,AC,
55151595,00000310,false,Rx,0,8,00,00,FC,FF,00,00,FF,FF,
55151986,00000600,false,Rx,0,8,00,00,1E,FF,10,27,11,27,
55155024,00000200,false,Rx,0,8,06,00,00,80,7A,51,E3,09,
55155990,00000210,false,Rx,0,8,3E,0A,00,80,00,54,9C,D3,
55156981,00000220,false,Rx,0,8,6D,01,00,80,01,51,F4,E2,
55159154,00000522,false,Rx,0,8,4B,92,FC,FF,49,92,E4,FF,
55160049,00000110,false,Rx,0,8,FF,7F,FE,7F,0D,2F,44,A2,
55160968,00000521,false,Rx,0,8,00,F0,FF,FF,CB,96,EC,FF,
55161988,00000600,false,Rx,0,8,00,00,1E,FF,11,27,11,27,
55165036,00000200,false,Rx,0,8,05,00,00,80,AA,61,BE,EE,
55165992,00000210,false,Rx,0,8,35,0A,00,80,00,64,9D,BC,
55166993,00000220,false,Rx,0,8,5A,01,00,80,01,61,F0,B1,
55171608,00000310,false,Rx,0,8,00,00,FC,FF,00,00,FF,FF,
55172000,00000600,false,Rx,0,8,00,00,1E,FF,11,27,12,27,
55175048,00000200,false,Rx,0,8,01,00,00,80,AA,71,BE,A6,
55176004,00000210,false,Rx,0,8,1F,0A,00,80,00,74,9B,BA,
55177005,00000220,false,Rx,0,8,30,01,00,80,01,71,F8,77,
55179169,00000522,false,Rx,0,8,4B,92,FC,FF,49,92,E4,FF,
55180073,00000110,false,Rx,0,8,FF,7F,FE,7F,0D,3F,45,6E,
55180982,00000521,false,Rx,0,8,00,F0,FF,FF,CB,96,EC,FF,
55182003,00000600,false,Rx,0,8,00,00,1E,FF,11,27,12,27,
55185051,00000200,false,Rx,0,8,05,00,00,80,AA,81,BF,66,
55186017,00000210,false,Rx,0,8,24,0A,00,80,00,84,9F,75,
55187019,00000220,false,Rx,0,8,30,01,00,80,01,81,F8,33,
55191617,00000310,false,Rx,0,8,00,00,FC,FF,00,00,FF,FF,
55192018,00000600,false,Rx,0,8,00,00,1E,FF,11,27,11,27,
55195056,00000200,false,Rx,0,8,05,00,00,80,A7,91,BA,3A,
55196022,00000210,false,Rx,0,8,23,0A,00,80,00,94,9F,0E,
55197012,00000220,false,Rx,0,8,3B,01,00,80,01,91,F8,84,
55199186,00000522,false,Rx,0,8,4B,92,FC,FF,49,92,E4,FF,
55200091,00000110,false,Rx,0,8,FF,7F,FE,7F,0D,4F,44,8A,
55201011,00000521,false,Rx,0,8,00,F0,FF,FF,CB,96,EC,FF,
55202031,00000600,false,Rx,0,8,00,00,1E,FF,11,27,11,27,
55202269,00000322,false,Rx,0,8,8E,06,00,FF,00,00,A7,00,
55205072,00000200,false,Rx,0,8,05,00,00,80,AA,A1,BE,BE,
55206038,00000210,false,Rx,0,8,1B,0A,00,80,00,A4,9B,A2,
55207030,00000220,false,Rx,0,8,62,01,00,80,01,A1,F4,59,
55211637,00000310,false,Rx,0,8,00,00,FC,FF,00,00,FF,FF,
55212038,00000600,false,Rx,0,8,00,00,1E,FF,11,27,12,27,
55215087,00000200,false,Rx,0,8,08,00,00,80,AA,B1,BE,6F,
55216043,00000210,false,Rx,0,8,1D,0A,00,80,00,B4,9A,08,
55217043,00000220,false,Rx,0,8,0A,01,00,80,01,B1,FD,7D,
55219217,00000522,false,Rx,0,8,4B,92,FC,FF,49,92,E4,FF,
55220101,00000110,false,Rx,0,8,FF,7F,FE,7F,0D,5F,45,46,
55221021,00000521,false,Rx,0,8,00,F0,FF,FF,CB,96,EC,FF,
55222041,00000600,false,Rx,0,8,00,00,1D,FF,11,27,11,27,
55225088,00000200,false,Rx,0,8,06,00,00,80,AA,C1,BE,A5,
55226055,00000210,false,Rx,0,8,1F,0A,00,80,00,C4,9A,0E,
55227045,00000220,false,Rx,0,8,30,01,00,80,01,C1,F9,C3,
55231652,00000310,false,Rx,0,8,00,00,FC,FF,00,00,FF,FF,
55232053,00000600,false,Rx,0,8,00,00,1E,FF,11,27,11,27,
55232281,000005F0,false,Rx,0,8,B6,76,4D,1F,14,27,04,64,
55235094,00000200,false,Rx,0,8,FF,FF,FF,7F,7A,D1,E2,F0,
55236060,00000210,false,Rx,0,8,0D,0A,00,80,00,D4,98,B0,
55237051,00000220,false,Rx,0,8,3B,01,00,80,01,D1,F9,74,
55239225,00000522,false,Rx,0,8,4B,92,FC,FF,49,92,E4,FF,
55240119,00000110,false,Rx,0,8,FF,7F,FE,7F,0D,6F,45,52,
55241029,00000521,false,Rx,0,8,00,F0,FF,FF,CB,96,EC,FF,
55242048,00000600,false,Rx,0,8,00,00,1E,FF,11,27,11,27,
55245097,00000200,false,Rx,0,8,03,00,00,80,AA,E1,BF,28,
55246053,00000210,false,Rx,0,8,23,0A,00,80,00,E4,9E,EA,
55247054,00000220,false,Rx,0,8,33,01,00,80,01,E1,F8,28,
55251660,00000310,false,Rx,0,8,00,00,FC,FF,00,00,FF,FF,
55252061,00000600,false,Rx,0,8,00,00,1E,FF,11,27,12,27,
55255099,00000200,false,Rx,0,8,06,00,00,80,AA,01,BE,F5,
55256065,00000210,false,Rx,0,8,14,0A,00,80,00,04,9B,25,
55257066,00000220,false,Rx,0,8,46,01,00,80,01,01,F2,C5,
55259229,00000522,false,Rx,0,8,4B,92,FC,FF,49,92,E4,FF,
55260134,00000110,false,Rx,0,8,FF,7F,FE,7F,0D,7F,44,9E,
55261044,00000521,false,Rx,0,8,00,F0,FF,FF,CB,96,EC,FF,
55262135,00000430,false,Rx,0,8,FF,FF,86,51,00,43,E3,24,
55262384,00000600,false,Rx,0,8,00,00,1E,FF,11,27,11,27,
55262613,00000440,false,Rx,0,8,FF,FF,86,51,00,43,E3,24,
55265109,00000200,false,Rx,0,8,06,00,00,80,AA,11,BF,39,
55266075,00000210,false,Rx,0,8,23,0A,00,80,00,14,9E,AE,
55267067,00000220,false,Rx,0,8,28,01,00,80,01,11,FB,87,
55271685,00000310,false,Rx,0,8,00,00,FC,FF,00,00,FF,FF,
55272074,00000600,false,Rx,0,8,00,00,1D,FF,10,27,11,27,
55275123,00000200,false,Rx,0,8,01,00,00,80,A7,21,BA,0A,
55276079,00000210,false,Rx,0,8,2E,0A,00,80,00,24,9F,A7,
55277081,00000220,false,Rx,0,8,15,01,00,80,01,21,FF,7E,
55279254,00000522,false,Rx,0,8,4B,92,FC,FF,49,92,E4,FF,
55280139,00000110,false,Rx,0,8,FF,7F,FE,7F,0D,8F,44,DA,
55281058,00000521,false,Rx,0,8,00,F0,FF,FF,CB,96,EC,FF,
55282087,00000600,false,Rx,0,8,00,00,1E,FF,11,27,11,27,
55285125,00000200,false,Rx,0,8,03,00,00,80,AA,31,BE,B4,
55286091,00000210,false,Rx,0,8,2C,0A,00,80,00,34,9F,89,
55287083,00000220,false,Rx,0,8,33,01,00,80,01,31,F9,B4,
55291699,00000310,false,Rx,0,8,00,00,FC,FF,00,00,FF,FF,
55292088,00000600,false,Rx,0,8,00,00,1E,FF,11,27,12,27,
55295135,00000200,false,Rx,0,8,03,00,00,80,AA,41,BF,50,
55296091,00000210,false,Rx,0,8,30,0A,00,80,00,44,9C,31,
55297093,00000220,false,Rx,0,8,5A,01,00,80,01,41,F1,69,
55299266,00000522,false,Rx,0,8,4B,92,FC,FF,49,92,E4,FF,
55300162,00000110,false,Rx,0,8,FF,7F,FE,7F,0D,9F,45,16,
55301080,00000521,false,Rx,0,8,00,F0,FF,FF,CB,96,EC,FF,
55302100,00000600,false,Rx,0,8,00,00,1D,FF,11,27,12,27,
55305148,00000200,false,Rx,0,8,06,00,00,80,AA,51,BE,C9,
55306114,00000210,false,Rx,0,8,26,0A,00,80,00,54,9F,0B,
55307116,00000220,false,Rx,0,8,1D,01,00,80,01,51,FF,D2,
55307345,00000511,false,Rx,0,8,40,00,00,F8,C9,B6,04,C9,
55309191,00000510,false,Rx,0,8,49,92,24,C9,49,92,FC,FF,
55311713,00000310,false,Rx,0,8,00,00,FC,FF,00,00,FF,FF,
55312113,00000600,false,Rx,0,8,00,00,1E,FF,11,27,11,27,
55315150,00000200,false,Rx,0,8,03,00,00,80,7A,61,E3,48,
55316127,00000210,false,Rx,0,8,16,0A,00,80,00,64,9A,EF,
55317108,00000220,false,Rx,0,8,1D,01,00,80,01,61,FF,C6,
55319283,00000522,false,Rx,0,8,4B,92,FC,FF,49,92,E4,FF,
55320187,00000110,false,Rx,0,8,FF,7F,FE,7F,0D,AF,45,02,
55321095,00000521,false,Rx,0,8,00,F0,FF,FF,CB,96,EC,FF,
55322125,00000600,false,Rx,0,8,00,00,1E,FF,11,27,11,27,
55325163,00000200,false,Rx,0,8,06,00,00,80,AA,71,BF,11,
55326129,00000210,false,Rx,0,8,21,0A,00,80,00,74,9F,64,
55327121,00000220,false,Rx,0,8,46,01,00,80,01,71,F3,21,
55331726,00000310,false,Rx,0,8,00,00,FC,FF,00,00,FF,FF,
55332135,00000600,false,Rx,0,8,00,00,1E,FF,11,27,12,27,
55335173,00000200,false,Rx,0,8,0A,00,00,80,AA,81,BF,99,
55336129,00000210,false,Rx,0,8,2F,0A,00,80,00,84,9E,0E,
55337131,00000220,false,Rx,0,8,46,01,00,80,01,81,F3,65,
55339305,00000522,false,Rx,0,8,4B,92,FC,FF,49,92,E4,FF,
55340199,00000110,false,Rx,0,8,FF,7F,FE,7F,0D,BF,44,CE,
55341098,00000521,false,Rx,0,8,00,F0,FF,FF,CB,96,EC,FF,
55342117,00000600,false,Rx,0,8,00,00,1D,FF,11,27,11,27,
55345175,00000200,false,Rx,0,8,00,00,00,80,AA,91,BE,FF,
55346131,00000210,false,Rx,0,8,2E,0A,00,80,00,94,9E,13,
55347123,00000220,false,Rx,0,8,2B,01,00,80,01,91,FA,14,
55351739,00000310,false,Rx,0,8,00,00,FC,FF,00,00,FF,FF,
55352139,00000600,false,Rx,0,8,00,00,1E,FF,11,27,11,27,
55355176,00000200,false,Rx,0,8,01,00,00,80,A7,A1,BB,AA,
55356142,00000210,false,Rx,0,8,2A,0A,00,80,00,A4,9F,83,
55357134,00000220,false,Rx,0,8,46,01,00,80,01,A1,F2,BD,
55359308,00000522,false,Rx,0,8,4B,92,FC,FF,49,92,E4,FF,
55360202,00000110,false,Rx,0,8,FF,7F,FE,7F,0D,CF,45,2A,
55361111,00000521,false,Rx,0,8,00,F0,FF,FF,CB,96,EC,FF,
55362140,00000600,false,Rx,0,8,00,00,1E,FF,11,27,11,27,
55362380,00000430,false,Rx,0,8,FF,FF,86,51,00,43,E3,24,
55362618,00000440,false,Rx,0,8,FF,FF,86,51,00,43,E3,24,
55365187,00000200,false,Rx,0,8,0A,00,00,80,AA,B1,BF,8D,
55366154,00000210,false,Rx,0,8,28,0A,00,80,00,B4,9F,AD,
55367145,00000220,false,Rx,0,8,1D,01,00,80,01,B1,FE,5A,
55371752,00000310,false,Rx,0,8,00,00,FC,FF,00,00,FF,FF,
55372150,00000600,false,Rx,0,8,00,00,1E,FF,11,27,12,27,
55375198,00000200,false,Rx,0,8,09,00,00,80,AA,C1,BE,5A,
55376155,00000210,false,Rx,0,8,28,0A,00,80,00,C4,9E,49,
55377146,00000220,false,Rx,0,8,5A,01,00,80,01,C1,F0,C9,
55379320,00000522,false,Rx,0,8,4B,92,FC,FF,49,92,E4,FF,
55380214,00000110,false,Rx,0,8,FF,7F,FE,7F,0D,DF,44,E6,
55381133,00000521,false,Rx,0,8,00,F0,FF,FF,CB,96,EC,FF,
55382152,00000600,false,Rx,0,8,00,00,1D,FF,11,27,11,27,
55385200,00000200,false,Rx,0,8,0B,00,00,80,AA,D1,BE,74,
55386168,00000210,false,Rx,0,8,2A,0A,00,80,00,D4,9E,67,
55387148,00000220,false,Rx,0,8,46,01,00,80,01,D1,F3,59,
55391765,00000310,false,Rx,0,8,00,00,FC,FF,00,00,FF,FF,
55392163,00000600,false,Rx,0,8,00,00,1E,FF,11,27,11,27,
55395211,00000200,false,Rx,0,8,06,00,00,80,7A,E1,E2,BD,
55396168,00000210,false,Rx,0,8,31,0A,00,80,00,E4,9D,98,
55397169,00000220,false,Rx,0,8,3B,01,00,80,01,E1,F9,60,
55399333,00000522,false,Rx,0,8,4B,92,FC,FF,49,92,E4,FF,
55400237,00000110,false,Rx,0,8,FF,7F,FE,7F,0D,EF,44,F2,
55401146,00000521,false,Rx,0,8,00,F0,FF,FF,CB,96,EC,FF,
55402176,00000600,false,Rx,0,8,00,00,1D,FF,11,27,11,27,
55405224,00000200,false,Rx,0,8,06,00,00,80,AA,01,BE,F5,
55406181,00000210,false,Rx,0,8,28,0A,00,80,00,04,9E,19,
55407182,00000220,false,Rx,0,8,33,01,00,80,01,01,F9,A0,
55411788,00000310,false,Rx,0,8,00,00,FC,FF,00,00,FF,FF,
55412187,00000600,false,Rx,0,8,00,00,1E,FF,11,27,12,27,
55415235,00000200,false,Rx,0,8,FD,FF,FF,7F,AA,11,BE,82,
55416202,00000210,false,Rx,0,8,28,0A,00,80,00,14,9F,D5,
55417193,00000220,false,Rx,0,8,4F,01,00,80,01,11,F3,90,
55419367,00000522,false,Rx,0,8,4B,92,FC,FF,49,92,E4,FF,
55420261,00000110,false,Rx,0,8,FF,7F,FE,7F,0D,0F,45,7A,
55421169,00000521,false,Rx,0,8,00,F0,FF,FF,CB,96,EC,FF,
55422200,00000600,false,Rx,0,8,00,00,1E,FF,11,27,11,27,
55425236,00000200,false,Rx,0,8,FF,FF,FF,7F,AA,21,BF,74,
55426204,00000210,false,Rx,0,8,1B,0A,00,80,00,24,9A,02,
55427195,00000220,false,Rx,0,8,4F,01,00,80,01,21,F3,84,
55431802,00000310,false,Rx,0,8,00,00,FC,FF,00,00,FF,FF,
55432202,00000600,false,Rx,0,8,00,00,1E,FF,11,27,11,27,
55435248,00000200,false,Rx,0,8,08,00,00,80,A7,31,BB,5F,
55436205,00000210,false,Rx,0,8,23,0A,00,80,00,34,9F,76,
55437206,00000220,false,Rx,0,8,33,01,00,80,01,31,F9,B4,
55439370,00000522,false,Rx,0,8,4B,92,FC,FF,49,92,E4,FF,
55440274,00000110,false,Rx,0,8,FF,7F,FE,7F,0D,1F,44,B6,
55441172,00000521,false,Rx,0,8,00,F0,FF,FF,CB,96,EC,FF,
55442203,00000600,false,Rx,0,8,00,00,1E,FF,11,27,11,27,
55445252,00000200,false,Rx,0,8,05,00,00,80,AA,41,BF,36,
55446208,00000210,false,Rx,0,8,31,0A,00,80,00,44,9D,E0,
55447198,00000220,false,Rx,0,8,46,01,00,80,01,41,F3,35,
55451815,00000310,false,Rx,0,8,00,00,FC,FF,00,00,FF,FF,
55452204,00000600,false,Rx,0,8,00,00,1E,FF,11,27,12,27,
55455252,00000200,false,Rx,0,8,05,00,00,80,AA,51,BE,FA,
55456218,00000210,false,Rx,0,8,28,0A,00,80,00,54,9E,25,
55457209,00000220,false,Rx,0,8,70,01,00,80,01,51,F7,6F,
55459383,00000522,false,Rx,0,8,4B,92,FC,FF,49,92,E4,FF,
55460277,00000110,false,Rx,0,8,FF,7F,FE,7F,0D,2F,44,A2,
55461185,00000521,false,Rx,0,8,00,F0,FF,FF,CB,96,EC,FF,
55462216,00000600,false,Rx,0,8,00,00,1E,FF,11,27,11,27,
55462454,00000430,false,Rx,0,8,FF,FF,86,51,00,43,E3,24,
55462693,00000440,false,Rx,0,8,FF,FF,86,51,00,43,E3,24,
55465262,00000200,false,Rx,0,8,01,00,00,80,AA,61,BF,6A,
55466218,00000210,false,Rx,0,8,2E,0A,00,80,00,64,9E,57,
55467220,00000220,false,Rx,0,8,4F,01,00,80,01,61,F2,74,
55471826,00000310,false,Rx,0,8,00,00,FC,FF,00,00,FF,FF,
55472226,00000600,false,Rx,0,8,00,00,1E,FF,11,27,11,27,
55475264,00000200,false,Rx,0,8,07,00,00,80,7A,71,E3,00,
55476230,00000210,false,Rx,0,8,1B,0A,00,80,00,74,9A,3E,
55477231,00000220,false,Rx,0,8,30,01,00,80,01,71,F8,77,
55479395,00000522,false,Rx,0,8,4B,92,FC,FF,49,92,E4,FF,
55480299,00000110,false,Rx,0,8,FF,7F,FE,7F,0D,3F,45,6E,
55481208,00000521,false,Rx,0,8,00,F0,FF,FF,CB,96,EC,FF,
55482228,00000600,false,Rx,0,8,00,00,1E,FF,11,27,11,27,
55485276,00000200,false,Rx,0,8,02,00,00,80,AA,81,BE,D1,
55486232,00000210,false,Rx,0,8,25,0A,00,80,00,84,9E,A4,
55487233,00000220,false,Rx,0,8,3B,01,00,80,01,81,F9,48,
55491850,00000310,false,Rx,0,8,00,00,FC,FF,00,00,FF,FF,
55492240,00000600,false,Rx,0,8,00,00,1E,FF,11,27,12,27,
55495288,00000200,false,Rx,0,8,05,00,00,80,AA,91,BE,AA,
55496244,00000210,false,Rx,0,8,2E,0A,00,80,00,94,9E,13,
55497235,00000220,false,Rx,0,8,5C,01,00,80,01,91,F0,93,
55499409,00000522,false,Rx,0,8,4B,92,FC,FF,49,92,E4,FF,
55500313,00000110,false,Rx,0,8,FF,7F,FE,7F,0D,4F,44,8A,
55501243,00000521,false,Rx,0,8,00,F0,FF,FF,CB,96,EC,FF,
55502254,00000600,false,Rx,0,8,00,00,1E,FF,11,27,11,27,
55505291,00000200,false,Rx,0,8,03,00,00,80,AA,A1,BE,D8,
55506257,00000210,false,Rx,0,8,39,0A,00,80,00,A4,9D,20,
55507268,00000220,false,Rx,0,8,30,01,00,80,01,A1,F9,EB,
55507497,00000511,false,Rx,0,8,40,00,00,F8,C9,B6,04,C9,
55509343,00000510,false,Rx,0,8,49,92,24,C9,49,92,FC,FF,
55511856,00000310,false,Rx,0,8,00,00,FC,FF,00,00,FF,FF,
55512266,00000600,false,Rx,0,8,00,00,1E,FF,11,27,11,27,
55515303,00000200,false,Rx,0,8,04,00,00,80,A7,B1,BA,33,
55516269,00000210,false,Rx,0,8,26,0A,00,80,00,B4,9E,83,
55517260,00000220,false,Rx,0,8,46,01,00,80,01,B1,F3,71,
55519434,00000522,false,Rx,0,8,4B,92,FC,FF,49,92,E4,FF,
55520329,00000110,false,Rx,0,8,FF,7F,FE,7F,0D,5F,45,46,
55521237,00000521,false,Rx,0,8,00,F0,FF,FF,CB,96,EC,FF,
55522268,00000600,false,Rx,0,8,00,00,1D,FF,11,27,11,27,
55525326,00000200,false,Rx,0,8,00,00,00,80,AA,C1,BE,C3,
55526272,00000210,false,Rx,0,8,35,0A,00,80,00,C4,9D,C4,
55527273,00000220,false,Rx,0,8,39,01,00,80,01,C1,F9,5A,
55531879,00000310,false,Rx,0,8,00,00,FC,FF,00,00,FF,FF,
55532279,00000600,false,Rx,0,8,00,00,1E,FF,11,27,12,27,
55535368,00000200,false,Rx,0,8,00,00,00,80,AA,D1,BF,0F,
55536282,00000210,false,Rx,0,8,23,0A,00,80,00,D4,9E,FE,
55537283,00000220,false,Rx,0,8,20,01,00,80,01,D1,FA,9F,
55539447,00000522,false,Rx,0,8,4B,92,FC,FF,49,92,E4,FF,
55540341,00000110,false,Rx,0,8,FF,7F,FE,7F,0D,6F,45,52,
55541241,00000521,false,Rx,0,8,00,F0,FF,FF,CB,96,EC,FF,
55542271,00000600,false,Rx,0,8,00,00,1E,FF,12,27,11,27,
55545319,00000200,false,Rx,0,8,FF,FF,FF,7F,AA,E1,BF,24,
55546286,00000210,false,Rx,0,8,21,0A,00,80,00,E4,9F,08,
55547276,00000220,false,Rx,0,8,5A,01,00,80,01,E1,F1,11,
55551893,00000310,false,Rx,0,8,00,00,FC,FF,00,00,FF,FF,
55552283,00000600,false,Rx,0,8,00,00,1E,FF,11,27,11,27,
55555331,00000200,false,Rx,0,8,02,00,00,80,7A,01,E2,B1,
55556296,00000210,false,Rx,0,8,12,0A,00,80,00,04,9B,43,
55557287,00000220,false,Rx,0,8,33,01,00,80,01,01,F9,A0,
55559461,00000522,false,Rx,0,8,4B,92,FC,FF,49,92,E4,FF,
55560355,00000110,false,Rx,0,8,FF,7F,FE,7F,0D,7F,44,9E,
55561264,00000521,false,Rx,0,8,00,F0,FF,FF,CB,96,EC,FF,
55562294,00000600,false,Rx,0,8,00,00,1E,FF,11,27,11,27,
55565342,00000200,false,Rx,0,8,08,00,00,80,AA,11,BE,17,
55566308,00000210,false,Rx,0,8,28,0A,00,80,00,14,9F,D5,
55567289,00000220,false,Rx,0,8,3B,01,00,80,01,11,F9,24,
55571905,00000310,false,Rx,0,8,00,00,FC,FF,00,00,FF,FF,
55572305,00000600,false,Rx,0,8,00,00,1E,FF,11,27,12,27,
55575353,00000200,false,Rx,0,8,07,00,00,80,AA,21,BE,FC,
55576298,00000210,false,Rx,0,8,2F,0A,00,80,00,24,9E,76,
55577299,00000220,false,Rx,0,8,44,01,00,80,01,21,F2,FF,
55579473,00000522,false,Rx,0,8,4B,92,FC,FF,49,92,E4,FF,
55580368,00000110,false,Rx,0,8,FF,7F,FE,7F,0D,8F,44,DA,
55581277,00000521,false,Rx,0,8,00,F0,FF,FF,CB,96,EC,FF,
55582307,00000600,false,Rx,0,8,00,00,1D,FF,11,27,11,27,
55585355,00000200,false,Rx,0,8,FF,FF,FF,7F,AA,31,BE,B8,
55586311,00000210,false,Rx,0,8,16,0A,00,80,00,34,9A,D3,
55587313,00000220,false,Rx,0,8,4F,01,00,80,01,31,F2,48,
55591919,00000310,false,Rx,0,8,00,00,FC,FF,00,00,FF,FF,
55592319,00000600,false,Rx,0,8,00,00,1E,FF,11,27,11,27,
55595356,00000200,false,Rx,0,8,04,00,00,80,A7,41,BA,77,
55596322,00000210,false,Rx,0,8,23,0A,00,80,00,44,9E,92,
55597324,00000220,false,Rx,0,8,28,01,00,80,01,41,FB,BB,
55599487,00000522,false,Rx,0,8,4B,92,FC,FF,49,92,E4,FF,
55600392,00000110,false,Rx,0,8,FF,7F,FE,7F,0D,9F,45,16,
55601301,00000521,false,Rx,0,8,00,F0,FF,FF,CB,96,EC,FF,
55602331,00000600,false,Rx,0,8,00,00,1E,FF,11,27,11,27,
55605368,00000200,false,Rx,0,8,02,00,00,80,AA,51,BF,4D,
55606335,00000210,false,Rx,0,8,23,0A,00,80,00,54,9F,5E,
55607337,00000220,false,Rx,0,8,4F,01,00,80,01,51,F2,60,
55611935,00000310,false,Rx,0,8,00,00,FC,FF,00,00,FF,FF,
55612344,00000600,false,Rx,0,8,00,00,1E,FF,11,27,12,27,
55615381,00000200,false,Rx,0,8,07,00,00,80,AA,61,BF,0C,
55616347,00000210,false,Rx,0,8,1B,0A,00,80,00,64,9B,F2,
55617339,00000220,false,Rx,0,8,3B,01,00,80,01,61,F8,C0,
55619512,00000522,false,Rx,0,8,4B,92,FC,FF,49,92,E4,FF,
55620407,00000110,false,Rx,0,8,FF,7F,FE,7F,0D,AF,45,02,
55621315,00000521,false,Rx,0,8,00,F0,FF,FF,CB,96,EC,FF,
55622345,00000600,false,Rx,0,8,00,00,1E,FF,11,27,11,27,
55625393,00000200,false,Rx,0,8,0A,00,00,80,AA,71,BF,DD,
55626348,00000210,false,Rx,0,8,2C,0A,00,80,00,74,9E,79,
55627351,00000220,false,Rx,0,8,30,01,00,80,01,71,F8,77,
55631947,00000310,false,Rx,0,8,00,00,FC,FF,00,00,FF,FF,
55632356,00000600,false,Rx,0,8,00,00,1E,FF,11,27,11,27,
55635393,00000200,false,Rx,0,8,00,00,00,80,7A,81,E2,F3,
55636360,00000210,false,Rx,0,8,2E,0A,00,80,00,84,9F,DF,
55637352,00000220,false,Rx,0,8,4F,01,00,80,01,81,F3,FC,
55639525,00000522,false,Rx,0,8,4B,92,FC,FF,49,92,E4,FF,
55640420,00000110,false,Rx,0,8,FF,7F,FE,7F,0D,BF,44,CE,
55641318,00000521,false,Rx,0,8,00,F0,FF,FF,CB,96,EC,FF,
55642348,00000600,false,Rx,0,8,00,00,1E,FF,11,27,11,27,
55645396,00000200,false,Rx,0,8,05,00,00,80,AA,91,BE,AA,
55646352,00000210,false,Rx,0,8,2E,0A,00,80,00,94,9E,13,
55647354,00000220,false,Rx,0,8,3B,01,00,80,01,91,F8,84,
55651970,00000310,false,Rx,0,8,00,00,FC,FF,00,00,FF,FF,
55652359,00000600,false,Rx,0,8,00,00,1E,FF,11,27,12,27,
55655407,00000200,false,Rx,0,8,06,00,00,80,AA,A1,BE,8D,
55656362,00000210,false,Rx,0,8,14,0A,00,80,00,A4,9B,5D,
55657355,00000220,false,Rx,0,8,4F,01,00,80,01,A1,F2,24,
55659529,00000522,false,Rx,0,8,4B,92,FC,FF,49,92,E4,FF,
55660424,00000110,false,Rx,0,8,FF,7F,FE,7F,0D,CF,45,2A,
55661342,00000521,false,Rx,0,8,00,F0,FF,FF,CB,96,EC,FF,
55662362,00000600,false,Rx,0,8,00,00,1E,FF,11,27,11,27,
55665411,00000200,false,Rx,0,8,08,00,00,80,AA,B1,BE,6F,
55666367,00000210,false,Rx,0,8,21,0A,00,80,00,B4,9F,34,
55667369,00000220,false,Rx,0,8,30,01,00,80,01,B1,F8,27,
55671976,00000310,false,Rx,0,8,00,00,FC,FF,00,00,FF,FF,
55672374,00000600,false,Rx,0,8,00,00,1E,FF,11,27,11,27,
55675412,00000200,false,Rx,0,8,08,00,00,80,A7,C1,BB,1B,
55676378,00000210,false,Rx,0,8,37,0A,00,80,00,C4,9C,26,
55677380,00000220,false,Rx,0,8,65,01,00,80,01,C1,F5,C6,
55679544,00000522,false,Rx,0,8,4B,92,FC,FF,49,92,E4,FF,
55680438,00000110,false,Rx,0,8,FF,7F,FE,7F,0D,DF,44,E6,
55681357,00000521,false,Rx,0,8,00,F0,FF,FF,CB,96,EC,FF,
55682377,00000600,false,Rx,0,8,00,00,1E,FF,11,27,12,27,
55685424,00000200,false,Rx,0,8,06,00,00,80,AA,D1,BF,69,
55686392,00000210,false,Rx,0,8,27,0A,00,80,00,D4,9F,7A,
55687382,00000220,false,Rx,0,8,44,01,00,80,01,D1,F2,BB,
55691999,00000310,false,Rx,0,8,00,00,FC,FF,00,00,FF,FF,
55692387,00000600,false,Rx,0,8,00,00,1E,FF,11,27,12,27,
55695437,00000200,false,Rx,0,8,00,00,00,80,AA,E1,BF,1B,
55696394,00000210,false,Rx,0,8,27,0A,00,80,00,E4,9F,6E,
55697395,00000220,false,Rx,0,8,33,01,00,80,01,E1,F8,28,
55699558,00000522,false,Rx,0,8,4B,92,FC,FF,49,92,E4,FF,
55700463,00000110,false,Rx,0,8,FF,7F,FE,7F,0D,EF,44,F2,
55701371,00000521,false,Rx,0,8,00,F0,FF,FF,CB,96,EC,FF,
55702401,00000600,false,Rx,0,8,00,00,1D,FF,11,27,11,27,
55705449,00000200,false,Rx,0,8,02,00,00,80,AA,01,BF,71,
55706416,00000210,false,Rx,0,8,1F,0A,00,80,00,04,9A,5E,
55707417,00000220,false,Rx,0,8,33,01,00,80,01,01,F9,A0,
55707655,00000511,false,Rx,0,8,40,00,00,F8,C9,B6,04,C9,
55708461,00000420,false,Rx,0,8,00,00,00,00,42,00,00,FF,
55709494,00000510,false,Rx,0,8,49,92,24,C9,49,92,FC,FF,
55712009,00000310,false,Rx,0,8,00,00,FC,FF,00,00,FF,FF,
55712408,00000600,false,Rx,0,8,00,00,1E,FF,11,27,11,27,
55715457,00000200,false,Rx,0,8,FB,FF,FF,7F,7A,11,E3,24,
55716424,00000210,false,Rx,0,8,28,0A,00,80,00,14,9F,D5,
55717405,00000220,false,Rx,0,8,46,01,00,80,01,11,F3,09,
55719579,00000522,false,Rx,0,8,4B,92,FC,FF,49,92,E4,FF,
55720485,00000110,false,Rx,0,8,FF,7F,FE,7F,0D,0F,45,7A,
55721393,00000521,false,Rx,0,8,00,F0,FF,FF,CB,96,EC,FF,
55722424,00000600,false,Rx,0,8,00,00,1E,FF,11,27,11,27,
55725463,00000200,false,Rx,0,8,07,00,00,80,AA,21,BE,FC,
55726430,00000210,false,Rx,0,8,28,0A,00,80,00,24,9F,C1,
55727421,00000220,false,Rx,0,8,20,01,00,80,01,21,FA,DB,
55732028,00000310,false,Rx,0,8,00,00,FC,FF,00,00,FF,FF,
55732426,00000600,false,Rx,0,8,00,00,1E,FF,11,27,12,27,
55735474,00000200,false,Rx,0,8,04,00,00,80,AA,31,BF,03,
55736431,00000210,false,Rx,0,8,32,0A,00,80,00,34,9C,37,
55737432,00000220,false,Rx,0,8,3B,01,00,80,01,31,F8,FC,
55739606,00000522,false,Rx,0,8,4B,92,FC,FF,49,92,E4,FF,
55740541,00000110,false,Rx,0,8,FF,7F,FE,7F,0D,1F,44,B6,
55741398,00000521,false,Rx,0,8,00,F0,FF,FF,CB,96,EC,FF,
55742418,00000600,false,Rx,0,8,00,00,1E,FF,12,27,11,27,
55745476,00000200,false,Rx,0,8,05,00,00,80,AA,41,BF,36,
55746433,00000210,false,Rx,0,8,23,0A,00,80,00,44,9E,92,
55747423,00000220,false,Rx,0,8,46,01,00,80,01,41,F3,35,
55752040,00000310,false,Rx,0,8,00,00,FC,FF,00,00,FF,FF,
55752440,00000600,false,Rx,0,8,00,00,1E,FF,10,27,11,27,
55755476,00000200,false,Rx,0,8,07,00,00,80,A7,51,BB,88,
55756443,00000210,false,Rx,0,8,1F,0A,00,80,00,54,9A,62,
55757434,00000220,false,Rx,0,8,46,01,00,80,01,51,F2,F9,
55759608,00000522,false,Rx,0,8,4B,92,FC,FF,49,92,E4,FF,
55760502,00000110,false,Rx,0,8,FF,7F,FE,7F,0D,2F,44,A2,
55761411,00000521,false,Rx,0,8,00,F0,FF,FF,CB,96,EC,FF,
55762443,00000600,false,Rx,0,8,00,00,1E,FF,11,27,11,27,
55765491,00000200,false,Rx,0,8,03,00,00,80,AA,61,BE,88,
55766457,00000210,false,Rx,0,8,26,0A,00,80,00,64,9F,1F,
55767437,00000220,false,Rx,0,8,51,01,00,80,01,61,F1,CA,
55772054,00000310,false,Rx,0,8,00,00,FC,FF,00,00,FF,FF,
55772454,00000600,false,Rx,0,8,00,00,1E,FF,11,27,12,27,
55775491,00000200,false,Rx,0,8,07,00,00,80,AA,71,BE,C0,
55776457,00000210,false,Rx,0,8,35,0A,00,80,00,74,9C,70,
55777448,00000220,false,Rx,0,8,3B,01,00,80,01,71,F9,0C,
55779622,00000522,false,Rx,0,8,4B,92,FC,FF,49,92,E4,FF,
55780516,00000110,false,Rx,0,8,FF,7F,FE,7F,0D,3F,45,6E,
55781424,00000521,false,Rx,0,8,00,F0,FF,FF,CB,96,EC,FF,
55782456,00000600,false,Rx,0,8,00,00,1E,FF,11,27,12,27,
55785505,00000200,false,Rx,0,8,FF,FF,FF,7F,AA,81,BF,0C,
55786461,00000210,false,Rx,0,8,1F,0A,00,80,00,84,9B,FE,
55787462,00000220,false,Rx,0,8,49,01,00,80,01,81,F3,9A,
55792069,00000310,false,Rx,0,8,00,00,FC,FF,00,00,FF,FF,
55792468,00000600,false,Rx,0,8,00,00,1E,FF,11,27,11,27,
55795506,00000200,false,Rx,0,8,07,00,00,80,7A,91,E2,88,
55796472,00000210,false,Rx,0,8,1F,0A,00,80,00,94,9A,32,
55797462,00000220,false,Rx,0,8,46,01,00,80,01,91,F2,A9,
55799637,00000522,false,Rx,0,8,4B,92,FC,FF,49,92,E4,FF,
55800541,00000110,false,Rx,0,8,FF,7F,FE,7F,0D,4F,44,8A,
55801450,00000521,false,Rx,0,8,00,F0,FF,FF,CB,96,EC,FF,
55802481,00000600,false,Rx,0,8,00,00,1E,FF,11,27,11,27,
55805519,00000200,false,Rx,0,8,FE,FF,FF,7F,AA,A1,BF,05,
55806485,00000210,false,Rx,0,8,2A,0A,00,80,00,A4,9F,83,
55807487,00000220,false,Rx,0,8,46,01,00,80,01,A1,F2,BD,
55812084,00000310,false,Rx,0,8,00,00,FC,FF,00,00,FF,FF,
55812484,00000600,false,Rx,0,8,00,00,1E,FF,11,27,12,27,
55815531,00000200,false,Rx,0,8,02,00,00,80,AA,B1,BE,C5,
55816487,00000210,false,Rx,0,8,23,0A,00,80,00,B4,9E,D6,
55817488,00000220,false,Rx,0,8,46,01,00,80,01,B1,F3,71,
55819663,00000522,false,Rx,0,8,4B,92,FC,FF,49,92,E4,FF,
55820557,00000110,false,Rx,0,8,FF,7F,FE,7F,0D,5F,45,46,
55821466,00000521,false,Rx,0,8,00,F0,FF,FF,CB,96,EC,FF,
55822497,00000600,false,Rx,0,8,00,00,1E,FF,11,27,11,27,
55825535,00000200,false,Rx,0,8,05,00,00,80,AA,C1,BE,96,
55826501,00000210,false,Rx,0,8,26,0A,00,80,00,C4,9F,67,
55827502,00000220,false,Rx,0,8,28,01,00,80,01,C1,FA,1B,
55832099,00000310,false,Rx,0,8,00,00,FC,FF,00,00,FF,FF,
55832499,00000600,false,Rx,0,8,00,00,1E,FF,0E,27,11,27,
55835547,00000200,false,Rx,0,8,01,00,00,80,A7,D1,BA,4E,
55836513,00000210,false,Rx,0,8,23,0A,00,80,00,D4,9E,FE,
55837503,00000220,false,Rx,0,8,4F,01,00,80,01,D1,F3,C0,
55839678,00000522,false,Rx,0,8,4B,92,FC,FF,49,92,E4,FF,
55840572,00000110,false,Rx,0,8,FF,7F,FE,7F,0D,6F,45,52,
55841470,00000521,false,Rx,0,8,00,F0,FF,FF,CB,96,EC,FF,
55842501,00000600,false,Rx,0,8,00,00,1D,FF,10,27,11,27,
55845550,00000200,false,Rx,0,8,0E,00,00,80,AA,E1,BE,35,
55846506,00000210,false,Rx,0,8,3C,0A,00,80,00,E4,9C,85,
55847497,00000220,false,Rx,0,8,4F,01,00,80,01,E1,F3,D4,
55852113,00000310,false,Rx,0,8,00,00,FC,FF,00,00,FF,FF,
55852513,00000600,false,Rx,0,8,00,00,1E,FF,11,27,12,27,
55855561,00000200,false,Rx,0,8,04,00,00,80,AA,01,BF,17,
55856517,00000210,false,Rx,0,8,21,0A,00,80,00,04,9E,80,
55857508,00000220,false,Rx,0,8,51,01,00,80,01,01,F1,E2,
55859681,00000522,false,Rx,0,8,4B,92,FC,FF,49,92,E4,FF,
55860586,00000110,false,Rx,0,8,FF,7F,FE,7F,0D,7F,44,9E,
55861495,00000521,false,Rx,0,8,00,F0,FF,FF,CB,96,EC,FF,
55862515,00000600,false,Rx,0,8,00,00,1E,FF,11,27,11,27,
55865563,00000200,false,Rx,0,8,06,00,00,80,AA,11,BF,39,
55866518,00000210,false,Rx,0,8,23,0A,00,80,00,14,9E,AE,
55867520,00000220,false,Rx,0,8,28,01,00,80,01,11,FB,87,
55872126,00000310,false,Rx,0,8,00,00,FC,FF,00,00,FF,FF,
55872526,00000600,false,Rx,0,8,00,00,1E,FF,11,27,11,27,
55875564,00000200,false,Rx,0,8,02,00,00,80,7A,21,E3,69,
55876530,00000210,false,Rx,0,8,25,0A,00,80,00,24,9E,DC,
55877521,00000220,false,Rx,0,8,4F,01,00,80,01,21,F3,84,
55879696,00000522,false,Rx,0,8,4B,92,FC,FF,49,92,E4,FF,
55880590,00000110,false,Rx,0,8,FF,7F,FE,7F,0D,8F,44,DA,
55881500,00000521,false,Rx,0,8,00,F0,FF,FF,CB,96,EC,FF,
55882530,00000600,false,Rx,0,8,00,00,1D,FF,11,27,11,27,
55885577,00000200,false,Rx,0,8,FF,FF,FF,7F,AA,31,BE,B8,
55886533,00000210,false,Rx,0,8,1D,0A,00,80,00,34,9B,A8,
55887534,00000220,false,Rx,0,8,5A,01,00,80,01,31,F0,8D,
55892142,00000310,false,Rx,0,8,00,00,FC,FF,00,00,FF,FF,
55892541,00000600,false,Rx,0,8,00,00,1E,FF,11,27,12,27,
55895589,00000200,false,Rx,0,8,03,00,00,80,AA,41,BF,50,
55896545,00000210,false,Rx,0,8,11,0A,00,80,00,44,9A,80,
55897535,00000220,false,Rx,0,8,46,01,00,80,01,41,F3,35,
55899709,00000522,false,Rx,0,8,4B,92,FC,FF,49,92,E4,FF,
55900614,00000110,false,Rx,0,8,FF,7F,FE,7F,0D,9F,45,16,
55901524,00000521,false,Rx,0,8,00,F0,FF,FF,CB,96,EC,FF,
55902554,00000600,false,Rx,0,8,00,00,1E,FF,11,27,11,27,
55905602,00000200,false,Rx,0,8,04,00,00,80,AA,51,BF,2B,
55906567,00000210,false,Rx,0,8,26,0A,00,80,00,54,9F,0B,
55907096,00000410,false,Rx,0,8,C4,FF,FF,F8,FF,FF,FF,FF,
55907572,00000220,false,Rx,0,8,4F,01,00,80,01,51,F2,60,
55907811,00000511,false,Rx,0,8,40,00,00,F8,C9,B6,04,C9,
55908618,00000230,false,Rx,0,8,4A,00,11,4C,48,21,3C,82,
55909649,00000510,false,Rx,0,8,49,92,24,C9,49,92,FC,FF,
55912164,00000310,false,Rx,0,8,00,00,FC,FF,00,00,FF,FF,
55912563,00000600,false,Rx,0,8,00,00,1E,FF,11,27,12,27,
55915601,00000200,false,Rx,0,8,04,00,00,80,A7,61,BB,AF,
55916568,00000210,false,Rx,0,8,2C,0A,00,80,00,64,9F,B5,
55917570,00000220,false,Rx,0,8,62,01,00,80,01,61,F4,09,
55919732,00000522,false,Rx,0,8,4B,92,FC,FF,49,92,E4,FF,
55920638,00000110,false,Rx,0,8,FF,7F,FE,7F,0D,AF,45,02,
55921546,00000521,false,Rx,0,8,00,F0,FF,FF,CB,96,EC,FF,
55922566,00000600,false,Rx,0,8,00,00,1E,FF,11,27,11,27,
55925613,00000200,false,Rx,0,8,03,00,00,80,AA,71,BF,44,
55926569,00000210,false,Rx,0,8,30,0A,00,80,00,74,9C,25,
55927571,00000220,false,Rx,0,8,3B,01,00,80,01,71,F9,0C,
55932177,00000310,false,Rx,0,8,00,00,FC,FF,00,00,FF,FF,
55932576,00000600,false,Rx,0,8,00,00,1E,FF,11,27,13,27,
55935623,00000200,false,Rx,0,8,00,00,00,80,AA,81,BF,33,
55936579,00000210,false,Rx,0,8,2C,0A,00,80,00,84,9E,3D,
55937582,00000220,false,Rx,0,8,28,01,00,80,01,81,FB,EB,
55939757,00000522,false,Rx,0,8,4B,92,FC,FF,49,92,E4,FF,
55940651,00000110,false,Rx,0,8,FF,7F,FE,7F,0D,BF,44,CE,
55941549,00000521,false,Rx,0,8,00,F0,FF,FF,CB,96,EC,FF,
55942579,00000600,false,Rx,0,8,00,00,1E,FF,11,27,11,27,
55945668,00000200,false,Rx,0,8,06,00,00,80,AA,91,BE,99,
55946582,00000210,false,Rx,0,8,32,0A,00,80,00,94,9C,4F,
55947574,00000220,false,Rx,0,8,46,01,00,80,01,91,F2,A9,
55952191,00000310,false,Rx,0,8,00,00,FC,FF,00,00,FF,FF,
55952590,00000600,false,Rx,0,8,00,00,1E,FF,11,27,11,27,
55952830,000005F1,false,Rx,0,8,55,28,28,FF,FF,FF,FF,FF,
55955632,00000200,false,Rx,0,8,01,00,00,80,7A,A1,E2,FA,
55956588,00000210,false,Rx,0,8,1D,0A,00,80,00,A4,9B,C4,
55957580,00000220,false,Rx,0,8,3E,01,00,80,01,A1,F8,C5,
55959754,00000522,false,Rx,0,8,4B,92,FC,FF,49,92,E4,FF,
55960658,00000110,false,Rx,0,8,FF,7F,FE,7F,0D,CF,45,2A,
55961566,00000521,false,Rx,0,8,00,F0,FF,FF,CB,96,EC,FF,
55962586,00000600,false,Rx,0,8,00,00,1E,FF,12,27,11,27,
55965634,00000200,false,Rx,0,8,03,00,00,80,AA,B1,BF,14,
55966589,00000210,false,Rx,0,8,25,0A,00,80,00,B4,9E,B0,
55967592,00000220,false,Rx,0,8,4F,01,00,80,01,B1,F3,E8,
55972209,00000310,false,Rx,0,8,00,00,FC,FF,00,00,FF,FF,
55972597,00000600,false,Rx,0,8,00,00,1E,FF,12,27,12,27,
55975645,00000200,false,Rx,0,8,04,00,00,80,AA,C1,BF,47,
55976611,00000210,false,Rx,0,8,2A,0A,00,80,00,C4,9F,AB,
55977602,00000220,false,Rx,0,8,3E,01,00,80,01,C1,F8,ED,
55979769,00000522,false,Rx,0,8,4B,92,FC,FF,49,92,E4,FF,
55980672,00000110,false,Rx,0,8,FF,7F,FE,7F,0D,DF,44,E6,
55981581,00000521,false,Rx,0,8,00,F0,FF,FF,CB,96,EC,FF,
55982611,00000600,false,Rx,0,8,00,00,1E,FF,11,27,11,27,
55985648,00000200,false,Rx,0,8,08,00,00,80,AA,D1,BE,47,
55986614,00000210,false,Rx,0,8,30,0A,00,80,00,D4,9C,5D,
55987606,00000220,false,Rx,0,8,51,01,00,80,01,D1,F0,7E,
55992223,00000310,false,Rx,0,8,00,00,FC,FF,00,00,FF,FF,
55992611,00000600,false,Rx,0,8,00,00,1E,FF,11,27,11,27,
55995659,00000200,false,Rx,0,8,02,00,00,80,A7,E1,BA,69,
55996625,00000210,false,Rx,0,8,14,0A,00,80,00,E4,9A,AD,
55997617,00000220,false,Rx,0,8,28,01,00,80,01,E1,FB,C3,
55999783,00000522,false,Rx,0,8,4B,92,FC,FF,49,92,E4,FF,
56000686,00000110,false,Rx,0,8,FF,7F,FE,7F,0D,EF,44,F2,
56001605,00000521,false,Rx,0,8,00,F0,FF,FF,CB,96,EC,FF,
56002635,00000600,false,Rx,0,8,00,00,1E,FF,11,27,11,27,
56002866,00000320,false,Rx,0,8,8E,06,00,FF,00,00,A7,00,
56005678,00000200,false,Rx,0,8,FD,FF,FF,7F,AA,01,BF,4E,
56006634,00000210,false,Rx,0,8,23,0A,00,80,00,04,9F,62,
56007636,00000220,false,Rx,0,8,39,01,00,80,01,01,F9,0A,
56012232,00000310,false,Rx,0,8,00,00,FC,FF,00,00,FF,FF,
56012641,00000600,false,Rx,0,8,00,00,1E,FF,12,27,12,27,
56015679,00000200,false,Rx,0,8,04,00,00,80,AA,11,BE,DB,
56016646,00000210,false,Rx,0,8,18,0A,00,80,00,14,9A,25,
56017637,00000220,false,Rx,0,8,46,01,00,80,01,11,F3,09,
56019812,00000522,false,Rx,0,8,4B,92,FC,FF,49,92,E4,FF,
56020705,00000110,false,Rx,0,8,FF,7F,FE,7F,0D,0F,45,7A,
56021613,00000521,false,Rx,0,8,00,F0,FF,FF,CB,96,EC,FF,
56022643,00000600,false,Rx,0,8,00,00,1E,FF,11,27,11,27,
56025691,00000200,false,Rx,0,8,00,00,00,80,AA,21,BF,4B,
56026648,00000210,false,Rx,0,8,03,0A,00,80,00,24,99,DA,
56027640,00000220,false,Rx,0,8,3B,01,00,80,01,21,F9,30,
56032246,00000310,false,Rx,0,8,00,00,FC,FF,00,00,FF,FF,
56032655,00000600,false,Rx,0,8,00,00,1E,FF,11,27,11,27,
56035693,00000200,false,Rx,0,8,03,00,00,80,7A,31,E3,74,
56036660,00000210,false,Rx,0,8,0F,0A,00,80,00,34,98,DA,
56037651,00000220,false,Rx,0,8,3B,01,00,80,01,31,F8,FC,
56039826,00000522,false,Rx,0,8,4B,92,FC,FF,49,92,E4,FF,
56040719,00000110,false,Rx,0,8,FF,7F,FE,7F,0D,1F,44,B6,
56041617,00000521,false,Rx,0,8,00,F0,FF,FF,CB,96,EC,FF,
56042647,00000600,false,Rx,0,8,00,00,1E,FF,11,27,11,27,
56045705,00000200,false,Rx,0,8,02,00,00,80,AA,41,BE,81,
56046652,00000210,false,Rx,0,8,25,0A,00,80,00,44,9E,F4,
56047653,00000220,false,Rx,0,8,20,01,00,80,01,41,FA,F3,
56052270,00000310,false,Rx,0,8,00,00,FC,FF,00,00,FF,FF,
56052659,00000600,false,Rx,0,8,00,00,1E,FF,11,27,12,27,
56055706,00000200,false,Rx,0,8,01,00,00,80,AA,51,BF,7E,
56056664,00000210,false,Rx,0,8,1D,0A,00,80,00,54,9B,80,
56057654,00000220,false,Rx,0,8,51,01,00,80,01,51,F1,DE,
56059829,00000522,false,Rx,0,8,4B,92,FC,FF,49,92,E4,FF,
56060722,00000110,false,Rx,0,8,FF,7F,FE,7F,0D,2F,44,A2,
56061641,00000521,false,Rx,0,8,00,F0,FF,FF,CB,96,EC,FF,
56062661,00000600,false,Rx,0,8,00,00,1E,FF,11,27,12,27,
56065710,00000200,false,Rx,0,8,06,00,00,80,AA,61,BE,DD,
56066666,00000210,false,Rx,0,8,1D,0A,00,80,00,64,9B,94,
56067668,00000220,false,Rx,0,8,3B,01,00,80,01,61,F8,C0,
56072285,00000310,false,Rx,0,8,00,00,FC,FF,00,00,FF,FF,
56072673,00000600,false,Rx,0,8,00,00,1E,FF,10,27,11,27,
56075721,00000200,false,Rx,0,8,FF,FF,FF,7F,A7,71,BB,D8,
56076678,00000210,false,Rx,0,8,21,0A,00,80,00,74,9F,64,
56077678,00000220,false,Rx,0,8,33,01,00,80,01,71,F8,44,
56079843,00000522,false,Rx,0,8,4B,92,FC,FF,49,92,E4,FF,
56080748,00000110,false,Rx,0,8,FF,7F,FE,7F,0D,3F,45,6E,
56081655,00000521,false,Rx,0,8,00,F0,FF,FF,CB,96,EC,FF,
56082676,00000600,false,Rx,0,8,00,00,1D,FF,11,27,11,27,
56085732,00000200,false,Rx,0,8,FF,FF,FF,7F,AA,81,BF,0C,
56086679,00000210,false,Rx,0,8,1D,0A,00,80,00,84,9A,1C,
56087690,00000220,false,Rx,0,8,33,01,00,80,01,81,F8,00,
56092297,00000310,false,Rx,0,8,00,00,FC,FF,00,00,FF,FF,
56092686,00000600,false,Rx,0,8,00,00,1E,FF,11,27,12,27,
56095734,00000200,false,Rx,0,8,01,00,00,80,AA,91,BF,2E,
56096690,00000210,false,Rx,0,8,1D,0A,00,80,00,94,9B,D0,
56097690,00000220,false,Rx,0,8,3B,01,00,80,01,91,F8,84,
56099866,00000522,false,Rx,0,8,4B,92,FC,FF,49,92,E4,FF,
56100770,00000110,false,Rx,0,8,FF,7F,FE,7F,0D,4F,44,8A,
56101677,00000521,false,Rx,0,8,00,F0,FF,FF,CB,96,EC,FF,
56102708,00000600,false,Rx,0,8,00,00,1E,FF,11,27,11,27,
56102948,00000321,false,Rx,0,8,8E,06,00,FF,00,00,A7,00,
56105751,00000200,false,Rx,0,8,07,00,00,80,AA,A1,BF,5C,
56106705,00000210,false,Rx,0,8,28,0A,00,80,00,A4,9E,61,
56107706,00000220,false,Rx,0,8,33,01,00,80,01,A1,F9,D8,
56107946,00000511,false,Rx,0,8,40,00,00,F8,C9,B6,04,C9,
56109794,00000510,false,Rx,0,8,49,92,24,C9,49,92,FC,FF,
56112304,00000310,false,Rx,0,8,00,00,FC,FF,00,00,FF,FF,
56112714,00000600,false,Rx,0,8,00,00,1E,FF,11,27,11,27,
56115753,00000200,false,Rx,0,8,0A,00,00,80,7A,B1,E2,4D,
56116718,00000210,false,Rx,0,8,24,0A,00,80,00,B4,9F,61,
56117719,00000220,false,Rx,0,8,28,01,00,80,01,B1,FB,FF,
56119884,00000522,false,Rx,0,8,4B,92,FC,FF,49,92,E4,FF,
56120778,00000110,false,Rx,0,8,FF,7F,FE,7F,0D,5F,45,46,
56121685,00000521,false,Rx,0,8,00,F0,FF,FF,CB,96,EC,FF,
56122717,00000600,false,Rx,0,8,00,00,1E,FF,11,27,11,27,
56125765,00000200,false,Rx,0,8,06,00,00,80,AA,C1,BE,A5,
56126730,00000210,false,Rx,0,8,21,0A,00,80,00,C4,9E,D0,
56127731,00000220,false,Rx,0,8,28,01,00,80,01,C1,FA,1B,
56132327,00000310,false,Rx,0,8,00,00,FC,FF,00,00,FF,FF,
56132727,00000600,false,Rx,0,8,00,00,1E,FF,11,27,12,27,
56135765,00000200,false,Rx,0,8,03,00,00,80,AA,D1,BF,3C,
56136741,00000210,false,Rx,0,8,1F,0A,00,80,00,D4,9B,C2,
56137721,00000220,false,Rx,0,8,5A,01,00,80,01,D1,F1,05,
56139896,00000522,false,Rx,0,8,4B,92,FC,FF,49,92,E4,FF,
56140790,00000110,false,Rx,0,8,FF,7F,FE,7F,0D,6F,45,52,
56141698,00000521,false,Rx,0,8,00,F0,FF,FF,CB,96,EC,FF,
56142729,00000600,false,Rx,0,8,00,00,1E,FF,11,27,11,27,
56145768,00000200,false,Rx,0,8,04,00,00,80,AA,E1,BE,9F,
56146733,00000210,false,Rx,0,8,25,0A,00,80,00,E4,9E,8C,
56147734,00000220,false,Rx,0,8,20,01,00,80,01,E1,FA,8B,
56152341,00000310,false,Rx,0,8,00,00,FC,FF,00,00,FF,FF,
56152730,00000600,false,Rx,0,8,00,00,1E,FF,11,27,12,27,
56155779,00000200,false,Rx,0,8,04,00,00,80,A7,01,BB,87,
56156745,00000210,false,Rx,0,8,2A,0A,00,80,00,04,9F,FB,
56157734,00000220,false,Rx,0,8,51,01,00,80,01,01,F1,E2,
56159909,00000522,false,Rx,0,8,4B,92,FC,FF,49,92,E4,FF,
56160804,00000110,false,Rx,0,8,FF,7F,FE,7F,0D,7F,44,9E,
56161711,00000521,false,Rx,0,8,00,F0,FF,FF,CB,96,EC,FF,
56162743,00000600,false,Rx,0,8,00,00,1E,FF,11,27,11,27,
56165791,00000200,false,Rx,0,8,02,00,00,80,AA,11,BE,BD,
56166746,00000210,false,Rx,0,8,2C,0A,00,80,00,14,9E,51,
56167747,00000220,false,Rx,0,8,15,01,00,80,01,11,FF,6A,
56172354,00000310,false,Rx,0,8,00,00,FC,FF,00,00,FF,FF,
56172754,00000600,false,Rx,0,8,00,00,1E,FF,10,27,13,27,
56175792,00000200,false,Rx,0,8,0C,00,00,80,AA,21,BF,87,
56176759,00000210,false,Rx,0,8,3B,0A,00,80,00,24,9D,62,
56177749,00000220,false,Rx,0,8,46,01,00,80,01,21,F3,1D,
56179923,00000522,false,Rx,0,8,4B,92,FC,FF,49,92,E4,FF,
56180817,00000110,false,Rx,0,8,FF,7F,FE,7F,0D,8F,44,DA,
56181735,00000521,false,Rx,0,8,00,F0,FF,FF,CB,96,EC,FF,
56182757,00000600,false,Rx,0,8,00,00,1E,FF,11,27,11,27,
56185794,00000200,false,Rx,0,8,06,00,00,80,AA,31,BE,E1,
56186760,00000210,false,Rx,0,8,35,0A,00,80,00,34,9D,80,
56187761,00000220,false,Rx,0,8,33,01,00,80,01,31,F9,B4,
56192366,00000310,false,Rx,0,8,00,00,FC,FF,00,00,FF,FF,
56192767,00000600,false,Rx,0,8,00,00,1E,FF,10,27,11,27,
56195804,00000200,false,Rx,0,8,07,00,00,80,7A,41,E3,14,
56196770,00000210,false,Rx,0,8,3D,0A,00,80,00,44,9D,2C,
56197761,00000220,false,Rx,0,8,46,01,00,80,01,41,F3,35,
56199935,00000522,false,Rx,0,8,4B,92,FC,FF,49,92,E4,FF,
56200840,00000110,false,Rx,0,8,FF,7F,FE,7F,0D,9F,45,16,
56201749,00000521,false,Rx,0,8,00,F0,FF,FF,CB,96,EC,FF,
56202779,00000600,false,Rx,0,8,00,00,1E,FF,11,27,11,27,
56203017,00000322,false,Rx,0,8,8E,06,00,FF,00,00,A7,00,
56205821,00000200,false,Rx,0,8,03,00,00,80,AA,51,BE,9C,
56206789,00000210,false,Rx,0,8,19,0A,00,80,00,54,9A,04,
56207790,00000220,false,Rx,0,8,28,01,00,80,01,51,FA,77,
56212385,00000310,false,Rx,0,8,00,00,FC,FF,00,00,FF,FF,
56212786,00000600,false,Rx,0,8,00,00,1E,FF,11,27,12,27,
56215833,00000200,false,Rx,0,8,07,00,00,80,AA,61,BF,0C,
56216799,00000210,false,Rx,0,8,26,0A,00,80,00,64,9F,1F,
56217790,00000220,false,Rx,0,8,4F,01,00,80,01,61,F2,74,
56219964,00000522,false,Rx,0,8,4B,92,FC,FF,49,92,E4,FF,
56220858,00000110,false,Rx,0,8,FF,7F,FE,7F,0D,AF,45,02,
56221768,00000521,false,Rx,0,8,00,F0,FF,FF,CB,96,EC,FF,
56222789,00000600,false,Rx,0,8,00,00,1E,FF,12,27,11,27,
56225837,00000200,false,Rx,0,8,0C,00,00,80,AA,71,BF,BB,
56226803,00000210,false,Rx,0,8,2E,0A,00,80,00,74,9F,9B,
56227794,00000220,false,Rx,0,8,33,01,00,80,01,71,F8,44,
56232400,00000310,false,Rx,0,8,00,00,FC,FF,00,00,FF,FF,
56232801,00000600,false,Rx,0,8,00,00,1E,FF,11,27,11,27,
56233039,000005F0,false,Rx,0,8,B6,76,4D,1F,14,27,04,64,
56235843,00000200,false,Rx,0,8,07,00,00,80,A7,81,BA,14,
56236809,00000210,false,Rx,0,8,37,0A,00,80,00,84,9D,D6,
56237799,00000220,false,Rx,0,8,3B,01,00,80,01,81,F9,48,
56239973,00000522,false,Rx,0,8,4B,92,FC,FF,49,92,E4,FF,
56240867,00000110,false,Rx,0,8,FF,7F,FE,7F,0D,BF,44,CE,
56241767,00000521,false,Rx,0,8,00,F0,FF,FF,CB,96,EC,FF,
56242797,00000600,false,Rx,0,8,00,00,1E,FF,12,27,12,27,
56245844,00000200,false,Rx,0,8,09,00,00,80,AA,91,BE,66,
56246810,00000210,false,Rx,0,8,28,0A,00,80,00,94,9E,75,
56247813,00000220,false,Rx,0,8,1D,01,00,80,01,91,FF,82,
56252419,00000310,false,Rx,0,8,00,00,FC,FF,00,00,FF,FF,
56252808,00000600,false,Rx,0,8,00,00,1E,FF,11,27,12,27,
56255856,00000200,false,Rx,0,8,FD,FF,FF,7F,AA,A1,BF,36,
56256811,00000210,false,Rx,0,8,1D,0A,00,80,00,A4,9B,C4,
56257803,00000220,false,Rx,0,8,4F,01,00,80,01,A1,F2,24,
56259986,00000522,false,Rx,0,8,4B,92,FC,FF,49,92,E4,FF,
56260872,00000110,false,Rx,0,8,FF,7F,FE,7F,0D,CF,45,2A,
56261791,00000521,false,Rx,0,8,00,F0,FF,FF,CB,96,EC,FF,
56262821,00000600,false,Rx,0,8,00,00,1E,FF,11,27,11,27,
56265868,00000200,false,Rx,0,8,FF,FF,FF,7F,AA,B1,BF,18,
56266824,00000210,false,Rx,0,8,28,0A,00,80,00,B4,9F,AD,
56267816,00000220,false,Rx,0,8,33,01,00,80,01,B1,F8,14,
56272432,00000310,false,Rx,0,8,00,00,FC,FF,00,00,FF,FF,
56272821,00000600,false,Rx,0,8,00,00,1E,FF,11,27,11,27,
56275870,00000200,false,Rx,0,8,09,00,00,80,7A,C1,E3,9A,
56276826,00000210,false,Rx,0,8,1B,0A,00,80,00,C4,9B,8A,
56277828,00000220,false,Rx,0,8,3E,01,00,80,01,C1,F8,ED,
56279992,00000522,false,Rx,0,8,4B,92,FC,FF,49,92,E4,FF,
56280898,00000110,false,Rx,0,8,FF,7F,FE,7F,0D,DF,44,E6,
56281806,00000521,false,Rx,0,8,00,F0,FF,FF,CB,96,EC,FF,
56282826,00000600,false,Rx,0,8,00,00,1E,FF,11,27,12,27,
56285873,00000200,false,Rx,0,8,FE,FF,FF,7F,AA,D1,BE,E1,
56286839,00000210,false,Rx,0,8,1D,0A,00,80,00,D4,9A,20,
56287842,00000220,false,Rx,0,8,33,01,00,80,01,D1,F8,3C,
56292447,00000310,false,Rx,0,8,00,00,FC,FF,00,00,FF,FF,
56292837,00000600,false,Rx,0,8,00,00,1E,FF,11,27,12,27,
56295885,00000200,false,Rx,0,8,02,00,00,80,AA,E1,BE,F9,
56296840,00000210,false,Rx,0,8,25,0A,00,80,00,E4,9E,8C,
56297842,00000220,false,Rx,0,8,3B,01,00,80,01,E1,F9,60,
56300015,00000522,false,Rx,0,8,4B,92,FC,FF,49,92,E4,FF,
56300910,00000110,false,Rx,0,8,FF,7F,FE,7F,0D,EF,44,F2,
56301829,00000521,false,Rx,0,8,00,F0,FF,FF,CB,96,EC,FF,
56302859,00000600,false,Rx,0,8,00,00,1E,FF,11,27,11,27,
56305896,00000200,false,Rx,0,8,00,00,00,80,AA,01,BE,93,
56306863,00000210,false,Rx,0,8,23,0A,00,80,00,04,9F,62,
56307855,00000220,false,Rx,0,8,4F,01,00,80,01,01,F2,5C,
56308093,00000511,false,Rx,0,8,40,00,00,F8,C9,B6,04,C9,
56309939,00000510,false,Rx,0,8,49,92,24,C9,49,92,FC,FF,
56312462,00000310,false,Rx,0,8,00,00,FC,FF,00,00,FF,FF,
56312862,00000600,false,Rx,0,8,00,00,1E,FF,11,27,11,27,
56315900,00000200,false,Rx,0,8,FD,FF,FF,7F,A7,11,BA,12,
56316866,00000210,false,Rx,0,8,14,0A,00,80,00,14,9A,E9,
56317858,00000220,false,Rx,0,8,46,01,00,80,01,11,F3,09,
56320032,00000522,false,Rx,0,8,4B,92,FC,FF,49,92,E4,FF,
56320926,00000110,false,Rx,0,8,FF,7F,FE,7F,0D,0F,45,7A,
56321845,00000521,false,Rx,0,8,00,F0,FF,FF,CB,96,EC,FF,
56322864,00000600,false,Rx,0,8,00,00,1E,FF,12,27,11,27,
56325922,00000200,false,Rx,0,8,FB,FF,FF,7F,AA,21,BE,F0,
56326878,00000210,false,Rx,0,8,16,0A,00,80,00,24,9B,1F,
56327870,00000220,false,Rx,0,8,3B,01,00,80,01,21,F9,30,
56332475,00000310,false,Rx,0,8,00,00,FC,FF,00,00,FF,FF,
56332875,00000600,false,Rx,0,8,00,00,1E,FF,11,27,12,27,
56335923,00000200,false,Rx,0,8,04,00,00,80,AA,31,BF,03,
56336890,00000210,false,Rx,0,8,18,0A,00,80,00,34,9B,FD,
56337881,00000220,false,Rx,0,8,5A,01,00,80,01,31,F0,8D,
56340055,00000522,false,Rx,0,8,4B,92,FC,FF,49,92,E4,FF,
56340949,00000110,false,Rx,0,8,FF,7F,FE,7F,0D,1F,44,B6,
56341847,00000521,false,Rx,0,8,00,F0,FF,FF,CB,96,EC,FF,
56342877,00000600,false,Rx,0,8,00,00,1E,FF,11,27,12,27,
56345924,00000200,false,Rx,0,8,03,00,00,80,AA,41,BF,50,
56346882,00000210,false,Rx,0,8,2E,0A,00,80,00,44,9F,8F,
56347873,00000220,false,Rx,0,8,46,01,00,80,01,41,F3,35,
56352489,00000310,false,Rx,0,8,00,00,FC,FF,00,00,FF,FF,
56352888,00000600,false,Rx,0,8,00,00,1E,FF,11,27,11,27,
56355968,00000200,false,Rx,0,8,05,00,00,80,7A,51,E3,3A,
56356884,00000210,false,Rx,0,8,4B,0A,00,80,00,54,97,B6,
56357886,00000220,false,Rx,0,8,28,01,00,80,01,51,FA,77,
56360061,00000522,false,Rx,0,8,4B,92,FC,FF,49,92,E4,FF,
56360955,00000110,false,Rx,0,8,FF,7F,FE,7F,0D,2F,44,A2,
56361863,00000521,false,Rx,0,8,00,F0,FF,FF,CB,96,EC,FF,
56362893,00000600,false,Rx,0,8,00,00,1E,FF,11,27,11,27,
56365940,00000200,false,Rx,0,8,03,00,00,80,AA,61,BE,88,
56366898,00000210,false,Rx,0,8,18,0A,00,80,00,64,9B,C1,
56367898,00000220,false,Rx,0,8,65,01,00,80,01,61,F5,BE,
56372504,00000310,false,Rx,0,8,00,00,FC,FF,00,00,FF,FF,
56372904,00000600,false,Rx,0,8,00,00,1E,FF,11,27,12,27,
56375943,00000200,false,Rx,0,8,06,00,00,80,AA,71,BF,11,
56376910,00000210,false,Rx,0,8,2A,0A,00,80,00,74,9E,1F,
56377901,00000220,false,Rx,0,8,5A,01,00,80,01,71,F1,7D,
56380075,00000522,false,Rx,0,8,4B,92,FC,FF,49,92,E4,FF,
56380970,00000110,false,Rx,0,8,FF,7F,FE,7F,0D,3F,45,6E,
56381878,00000521,false,Rx,0,8,00,F0,FF,FF,CB,96,EC,FF,
56382908,00000600,false,Rx,0,8,00,00,1E,FF,11,27,11,27,
56385947,00000200,false,Rx,0,8,05,00,00,80,AA,81,BF,66,
56386915,00000210,false,Rx,0,8,2E,0A,00,80,00,84,9F,DF,
56387905,00000220,false,Rx,0,8,1D,01,00,80,01,81,FE,4E,
56392521,00000310,false,Rx,0,8,00,00,FC,FF,00,00,FF,FF,
56392910,00000600,false,Rx,0,8,00,00,1E,FF,10,27,11,27,
56395958,00000200,false,Rx,0,8,04,00,00,80,A7,91,BB,EB,
56396925,00000210,false,Rx,0,8,28,0A,00,80,00,94,9E,75,
56397916,00000220,false,Rx,0,8,33,01,00,80,01,91,F9,CC,
56400091,00000522,false,Rx,0,8,4B,92,FC,FF,49,92,E4,FF,
56400995,00000110,false,Rx,0,8,FF,7F,FE,7F,0D,4F,44,8A,
56401903,00000521,false,Rx,0,8,00,F0,FF,FF,CB,96,EC,FF,
56402923,00000600,false,Rx,0,8,00,00,1E,FF,11,27,11,27,
56405970,00000200,false,Rx,0,8,04,00,00,80,AA,A1,BF,6F,
56406928,00000210,false,Rx,0,8,1D,0A,00,80,00,A4,9B,C4,
56407929,00000220,false,Rx,0,8,33,01,00,80,01,A1,F9,D8,
56412535,00000310,false,Rx,0,8,00,00,FC,FF,00,00,FF,FF,
56412936,00000600,false,Rx,0,8,00,00,1E,FF,11,27,12,27,
56415983,00000200,false,Rx,0,8,FF,FF,FF,7F,AA,B1,BF,18,
56416950,00000210,false,Rx,0,8,24,0A,00,80,00,B4,9F,61,
56417930,00000220,false,Rx,0,8,46,01,00,80,01,B1,F3,71,
56420114,00000522,false,Rx,0,8,4B,92,FC,FF,49,92,E4,FF,
56421009,00000110,false,Rx,0,8,FF,7F,FE,7F,0D,5F,45,46,
56421917,00000521,false,Rx,0,8,00,F0,FF,FF,CB,96,EC,FF,
56422938,00000600,false,Rx,0,8,00,00,1D,FF,11,27,11,27,
56425986,00000200,false,Rx,0,8,02,00,00,80,AA,C1,BF,21,
56426952,00000210,false,Rx,0,8,25,0A,00,80,00,C4,9F,54,
56427943,00000220,false,Rx,0,8,30,01,00,80,01,C1,F9,C3,
56432548,00000310,false,Rx,0,8,00,00,FC,FF,00,00,FF,FF,
56432949,00000600,false,Rx,0,8,00,00,1E,FF,11,27,11,27,
56435997,00000200,false,Rx,0,8,01,00,00,80,7A,D1,E3,1E,
56436963,00000210,false,Rx,0,8,24,0A,00,80,00,D4,9F,49,
56437954,00000220,false,Rx,0,8,28,01,00,80,01,D1,FB,D7,
56440118,00000522,false,Rx,0,8,4B,92,FC,FF,49,92,E4,FF,
56441023,00000110,false,Rx,0,8,FF,7F,FE,7F,0D,6F,45,52,
56441921,00000521,false,Rx,0,8,00,F0,FF,FF,CB,96,EC,FF,
56442952,00000600,false,Rx,0,8,00,00,1D,FF,12,27,11,27,
56446000,00000200,false,Rx,0,8,00,00,00,80,AA,E1,BF,1B,
56446966,00000210,false,Rx,0,8,1F,0A,00,80,00,E4,9B,D6,
56447966,00000220,false,Rx,0,8,3B,01,00,80,01,E1,F9,60,
56452562,00000310,false,Rx,0,8,00,00,FC,FF,00,00,FF,FF,
56452962,00000600,false,Rx,0,8,00,00,1E,FF,11,27,11,27,
56456010,00000200,false,Rx,0,8,02,00,00,80,AA,01,BF,71,
56456966,00000210,false,Rx,0,8,1D,0A,00,80,00,04,9B,BC,
56457967,00000220,false,Rx,0,8,30,01,00,80,01,01,F9,93,
56460131,00000522,false,Rx,0,8,4B,92,FC,FF,49,92,E4,FF,
56461025,00000110,false,Rx,0,8,FF,7F,FE,7F,0D,7F,44,9E,
56461933,00000521,false,Rx,0,8,00,F0,FF,FF,CB,96,EC,FF,
56462964,00000600,false,Rx,0,8,00,00,1E,FF,11,27,11,27,
56466012,00000200,false,Rx,0,8,03,00,00,80,AA,11,BF,6C,
56466978,00000210,false,Rx,0,8,28,0A,00,80,00,14,9F,D5,
56467958,00000220,false,Rx,0,8,5A,01,00,80,01,11,F1,55,
56472575,00000310,false,Rx,0,8,00,00,FC,FF,00,00,FF,FF,
56472976,00000600,false,Rx,0,8,00,00,1E,FF,11,27,12,27,
56476014,00000200,false,Rx,0,8,FF,FF,FF,7F,A7,21,BB,E4,
56476980,00000210,false,Rx,0,8,0E,0A,00,80,00,24,98,C7,
56477970,00000220,false,Rx,0,8,46,01,00,80,01,21,F3,1D,
56480144,00000522,false,Rx,0,8,4B,92,FC,FF,49,92,E4,FF,
56481039,00000110,false,Rx,0,8,FF,7F,FE,7F,0D,8F,44,DA,
56481957,00000521,false,Rx,0,8,00,F0,FF,FF,CB,96,EC,FF,
56482978,00000600,false,Rx,0,8,00,00,1E,FF,11,27,11,27,
56486026,00000200,false,Rx,0,8,FF,FF,FF,7F,AA,31,BE,B8,
56486981,00000210,false,Rx,0,8,12,0A,00,80,00,34,9B,57,
56487982,00000220,false,Rx,0,8,15,01,00,80,01,31,FE,B2,
56492598,00000310,false,Rx,0,8,00,00,FC,FF,00,00,FF,FF,
56492989,00000600,false,Rx,0,8,00,00,1E,FF,11,27,12,27,
56496037,00000200,false,Rx,0,8,FE,FF,FF,7F,AA,41,BE,8D,
56496994,00000210,false,Rx,0,8,1B,0A,00,80,00,44,9A,2A,
56497985,00000220,false,Rx,0,8,46,01,00,80,01,41,F3,35,
56500159,00000522,false,Rx,0,8,4B,92,FC,FF,49,92,E4,FF,
56501064,00000110,false,Rx,0,8,FF,7F,FE,7F,0D,9F,45,16,
56501972,00000521,false,Rx,0,8,00,F0,FF,FF,CB,96,EC,FF,
56503003,00000600,false,Rx,0,8,00,00,1E,FF,11,27,11,27,
56506051,00000200,false,Rx,0,8,04,00,00,80,AA,51,BF,2B,
56507007,00000210,false,Rx,0,8,28,0A,00,80,00,54,9E,25,
56508018,00000220,false,Rx,0,8,46,01,00,80,01,51,F2,F9,
56508248,00000511,false,Rx,0,8,40,00,00,F8,C9,B6,04,C9,
56510094,00000510,false,Rx,0,8,49,92,24,C9,49,92,FC,FF,
56512615,00000310,false,Rx,0,8,00,00,FC,FF,00,00,FF,FF,
56513006,00000600,false,Rx,0,8,00,00,1E,FF,11,27,12,27,
56516053,00000200,false,Rx,0,8,05,00,00,80,7A,61,E3,2E,
56517019,00000210,false,Rx,0,8,25,0A,00,80,00,64,9F,2C,
56518010,00000220,false,Rx,0,8,46,01,00,80,01,61,F2,ED,
56520184,00000522,false,Rx,0,8,4B,92,FC,FF,49,92,E4,FF,
56521078,00000110,false,Rx,0,8,FF,7F,FE,7F,0D,AF,45,02,
56521988,00000521,false,Rx,0,8,00,F0,FF,FF,CB,96,EC,FF,
56523018,00000600,false,Rx,0,8,00,00,1E,FF,12,27,11,27,
56526066,00000200,false,Rx,0,8,01,00,00,80,AA,71,BE,A6,
56527022,00000210,false,Rx,0,8,2C,0A,00,80,00,74,9E,79,
56528012,00000220,false,Rx,0,8,46,01,00,80,01,71,F3,21,
56532628,00000310,false,Rx,0,8,00,00,FC,FF,00,00,FF,FF,
56533030,00000600,false,Rx,0,8,00,00,1E,FF,11,27,12,27,
56536067,00000200,false,Rx,0,8,04,00,00,80,AA,81,BE,B7,
56537033,00000210,false,Rx,0,8,2C,0A,00,80,00,84,9E,3D,
56538025,00000220,false,Rx,0,8,3B,01,00,80,01,81,F9,48,
56540200,00000522,false,Rx,0,8,4B,92,FC,FF,49,92,E4,FF,
56541094,00000110,false,Rx,0,8,FF,7F,FE,7F,0D,BF,44,CE,
56541994,00000521,false,Rx,0,8,00,F0,FF,FF,CB,96,EC,FF,
56543025,00000600,false,Rx,0,8,00,00,1E,FF,11,27,12,27,
56546072,00000200,false,Rx,0,8,FF,FF,FF,7F,AA,91,BE,C0,
56547038,00000210,false,Rx,0,8,2E,0A,00,80,00,94,9E,13,
56548030,00000220,false,Rx,0,8,3E,01,00,80,01,91,F8,D1,
56552637,00000310,false,Rx,0,8,00,00,FC,FF,00,00,FF,FF,
56553038,00000600,false,Rx,0,8,00,00,1E,FF,11,27,11,27,
56556075,00000200,false,Rx,0,8,00,00,00,80,A7,A1,BA,7B,
56557041,00000210,false,Rx,0,8,25,0A,00,80,00,A4,9F,7C,
56558032,00000220,false,Rx,0,8,15,01,00,80,01,A1,FE,DE,
56560206,00000522,false,Rx,0,8,4B,92,FC,FF,49,92,E4,FF,
56561153,00000110,false,Rx,0,8,FF,7F,FE,7F,0D,CF,45,2A,
56562010,00000521,false,Rx,0,8,00,F0,FF,FF,CB,96,EC,FF,
56563040,00000600,false,Rx,0,8,00,00,1D,FF,11,27,11,27,
56566087,00000200,false,Rx,0,8,FD,FF,FF,7F,AA,B1,BE,FA,
56567043,00000210,false,Rx,0,8,21,0A,00,80,00,B4,9F,34,
56568055,00000220,false,Rx,0,8,28,01,00,80,01,B1,FB,FF,
56572661,00000310,false,Rx,0,8,00,00,FC,FF,00,00,FF,FF,
56573040,00000600,false,Rx,0,8,00,00,1E,FF,11,27,13,27,
56576098,00000200,false,Rx,0,8,02,00,00,80,AA,C1,BF,21,
56577054,00000210,false,Rx,0,8,21,0A,00,80,00,C4,9E,D0,
56578047,00000220,false,Rx,0,8,46,01,00,80,01,C1,F2,95,
56580220,00000522,false,Rx,0,8,4B,92,FC,FF,49,92,E4,FF,
56581116,00000110,false,Rx,0,8,FF,7F,FE,7F,0D,DF,44,E6,
56582024,00000521,false,Rx,0,8,00,F0,FF,FF,CB,96,EC,FF,
56583054,00000600,false,Rx,0,8,00,00,1E,FF,11,27,11,27,
56586102,00000200,false,Rx,0,8,05,00,00,80,AA,D1,BF,5A,
56587059,00000210,false,Rx,0,8,2A,0A,00,80,00,D4,9E,67,
56588051,00000220,false,Rx,0,8,28,01,00,80,01,D1,FB,D7,
56592666,00000310,false,Rx,0,8,00,00,FC,FF,00,00,FF,FF,
56593066,00000600,false,Rx,0,8,00,00,1E,FF,11,27,12,27,
56596104,00000200,false,Rx,0,8,08,00,00,80,7A,E1,E3,93,
56597070,00000210,false,Rx,0,8,1F,0A,00,80,00,E4,9B,D6,
56598061,00000220,false,Rx,0,8,1D,01,00,80,01,E1,FE,66,
56600235,00000522,false,Rx,0,8,4B,92,FC,FF,49,92,E4,FF,
56601141,00000110,false,Rx,0,8,FF,7F,FE,7F,0D,EF,44,F2,
56602049,00000521,false,Rx,0,8,00,F0,FF,FF,CB,96,EC,FF,
56603079,00000600,false,Rx,0,8,00,00,1E,FF,11,27,12,27,
56606128,00000200,false,Rx,0,8,0B,00,00,80,AA,01,BF,E8,
56607084,00000210,false,Rx,0,8,26,0A,00,80,00,04,9F,37,
56608086,00000220,false,Rx,0,8,57,01,00,80,01,01,F1,84,
56612682,00000310,false,Rx,0,8,00,00,FC,FF,00,00,FF,FF,
56613092,00000600,false,Rx,0,8,00,00,1E,FF,10,27,12,27,
56616129,00000200,false,Rx,0,8,05,00,00,80,AA,11,BF,0A,
56617096,00000210,false,Rx,0,8,25,0A,00,80,00,14,9E,C8,
56618088,00000220,false,Rx,0,8,46,01,00,80,01,11,F3,09,
56620261,00000522,false,Rx,0,8,4B,92,FC,FF,49,92,E4,FF,
56621156,00000110,false,Rx,0,8,FF,7F,FE,7F,0D,0F,45,7A,
56622065,00000521,false,Rx,0,8,00,F0,FF,FF,CB,96,EC,FF,
56623095,00000600,false,Rx,0,8,00,00,1E,FF,11,27,11,27,
56626142,00000200,false,Rx,0,8,02,00,00,80,AA,21,BE,A9,
56627098,00000210,false,Rx,0,8,1B,0A,00,80,00,24,9A,02,
56628090,00000220,false,Rx,0,8,4F,01,00,80,01,21,F3,84,
56632696,00000310,false,Rx,0,8,00,00,FC,FF,00,00,FF,FF,
56633096,00000600,false,Rx,0,8,00,00,1E,FF,10,27,12,27,
56636144,00000200,false,Rx,0,8,01,00,00,80,A7,31,BB,C6,
56637110,00000210,false,Rx,0,8,2C,0A,00,80,00,34,9F,89,
56638102,00000220,false,Rx,0,8,3B,01,00,80,01,31,F8,FC,
56640276,00000522,false,Rx,0,8,4B,92,FC,FF,49,92,E4,FF,
56641170,00000110,false,Rx,0,8,FF,7F,FE,7F,0D,1F,44,B6,
56642068,00000521,false,Rx,0,8,00,F0,FF,FF,CB,96,EC,FF,
56643098,00000600,false,Rx,0,8,00,00,1D,FF,11,27,11,27,
56646146,00000200,false,Rx,0,8,FF,FF,FF,7F,AA,41,BF,5C,
56647112,00000210,false,Rx,0,8,0F,0A,00,80,00,44,99,3E,
56648104,00000220,false,Rx,0,8,3B,01,00,80,01,41,F9,18,
56652720,00000310,false,Rx,0,8,00,00,FC,FF,00,00,FF,FF,
56653109,00000600,false,Rx,0,8,00,00,1E,FF,11,27,11,27,
56656157,00000200,false,Rx,0,8,00,00,00,80,AA,51,BE,AF,
56657124,00000210,false,Rx,0,8,2A,0A,00,80,00,54,9F,C7,
56658116,00000220,false,Rx,0,8,33,01,00,80,01,51,F9,9C,
56660280,00000522,false,Rx,0,8,4B,92,FC,FF,49,92,E4,FF,
56661174,00000110,false,Rx,0,8,FF,7F,FE,7F,0D,2F,44,A2,
56662093,00000521,false,Rx,0,8,00,F0,FF,FF,CB,96,EC,FF,
56663112,00000600,false,Rx,0,8,00,00,1E,FF,11,27,11,27,
56666160,00000200,false,Rx,0,8,05,00,00,80,AA,61,BE,EE,
56667116,00000210,false,Rx,0,8,23,0A,00,80,00,64,9F,4A,
56668118,00000220,false,Rx,0,8,20,01,00,80,01,61,FB,2B,
56672734,00000310,false,Rx,0,8,00,00,FC,FF,00,00,FF,FF,
56673123,00000600,false,Rx,0,8,00,00,1E,FF,11,27,11,27,
56676161,00000200,false,Rx,0,8,04,00,00,80,7A,71,E3,33,
56677128,00000210,false,Rx,0,8,2C,0A,00,80,00,74,9E,79,
56678119,00000220,false,Rx,0,8,62,01,00,80,01,71,F5,C5,
56680293,00000522,false,Rx,0,8,4B,92,FC,FF,49,92,E4,FF,
56681197,00000110,false,Rx,0,8,FF,7F,FE,7F,0D,3F,45,6E,
56682106,00000521,false,Rx,0,8,00,F0,FF,FF,CB,96,EC,FF,
56683136,00000600,false,Rx,0,8,00,00,1E,FF,11,27,11,27,
56686173,00000200,false,Rx,0,8,FF,FF,FF,7F,AA,81,BF,0C,
56687140,00000210,false,Rx,0,8,14,0A,00,80,00,84,9A,85,
56688131,00000220,false,Rx,0,8,3B,01,00,80,01,81,F9,48,
56692748,00000310,false,Rx,0,8,00,00,FC,FF,00,00,FF,FF,
56693136,00000600,false,Rx,0,8,00,00,1E,FF,11,27,12,27,
56696184,00000200,false,Rx,0,8,07,00,00,80,AA,91,BF,48,
56697141,00000210,false,Rx,0,8,23,0A,00,80,00,94,9F,0E,
56698142,00000220,false,Rx,0,8,5A,01,00,80,01,91,F0,F5,
